!CSV A.01.01
!Keysight Technologies,P5008B,MY61100146,A.17.20.08
!Date: Saturday, November 18, 2023 14:09:18
!Source: Standard

BEGIN CH1_DATA
Freq(Hz),S12(DB),S12(DEG)
2000000000,-35.21513,-62.142986
2001955034.2131,-34.948032,-70.673691
2003910068.4262,-33.677319,-84.202583
2005865102.6393,-33.083401,-101.42794
2007820136.8524,-33.555378,-115.45474
2009775171.0655,-33.690449,-129.20178
2011730205.2786,-34.062092,-143.55049
2013685239.4917,-34.83083,-153.62613
2015640273.7048,-35.069344,-163.308
2017595307.9179,-35.313942,-169.81721
2019550342.131,-35.74485,177.87384
2021505376.3441,-35.467911,172.60989
2023460410.5572,-35.483131,160.53766
2025415444.7703,-34.799938,154.4073
2027370478.9834,-33.876247,137.37105
2029325513.1965,-34.517956,118.25298
2031280547.4096,-34.704788,105.29088
2033235581.6227,-36.126949,88.902115
2035190615.8358,-35.823223,83.682396
2037145650.0489,-36.775421,60.695301
2039100684.262,-38.99963,53.792713
2041055718.4751,-39.056435,55.640625
2043010752.6882,-37.400211,38.83725
2044965786.9013,-38.609978,17.142548
2046920821.1144,-39.501347,-2.6204414
2048875855.3275,-40.894283,-15.762611
2050830889.5406,-42.277763,-43.65556
2052785923.7537,-45.373329,-80.749626
2054740957.9668,-52.518951,-162.90143
2056695992.1799,-53.632759,91.732414
2058651026.393,-50.641022,55.877819
2060606060.6061,-51.869865,52.383877
2062561094.8192,-47.576649,54.722805
2064516129.0323,-45.386292,45.624184
2066471163.2454,-41.062687,29.008766
2068426197.4585,-39.352379,-1.8201942
2070381231.6716,-39.845215,-31.654194
2072336265.8847,-41.29528,-49.887383
2074291300.0978,-41.898182,-65.309311
2076246334.3109,-45.798088,-80.363815
2078201368.5239,-44.227989,-71.58783
2080156402.737,-44.190296,-100.0777
2082111436.9501,-45.419258,-113.76881
2084066471.1632,-45.099232,-154.23056
2086021505.3763,-51.409256,132.08675
2087976539.5894,-48.570324,29.040026
2089931573.8025,-46.49239,-53.181591
2091886608.0156,-49.608521,-75.025116
2093841642.2287,-48.496342,-89.40432
2095796676.4418,-56.830227,-93.994949
2097751710.6549,-53.231487,-31.584322
2099706744.868,-44.911278,-47.827805
2101661779.0811,-43.856243,-66.703156
2103616813.2942,-42.715363,-79.387169
2105571847.5073,-39.817638,-96.013634
2107526881.7204,-40.567131,-123.18463
2109481915.9335,-41.64584,-106.79761
2111436950.1466,-38.008076,-125.53886
2113391984.3597,-38.005043,-139.21762
2115347018.5728,-36.261036,-141.25031
2117302052.7859,-34.452991,-162.13866
2119257086.999,-33.697159,178.50514
2121212121.2121,-33.415337,161.31329
2123167155.4252,-32.52309,141.73779
2125122189.6383,-32.921917,117.20299
2127077223.8514,-34.965626,99.435532
2129032258.0645,-36.564293,96.180191
2130987292.2776,-36.5518,83.9991
2132942326.4907,-38.079514,88.723618
2134897360.7038,-35.84919,77.568016
2136852394.9169,-35.34222,62.274662
2138807429.13,-36.287319,51.197262
2140762463.3431,-36.263359,35.670986
2142717497.5562,-37.568581,27.786776
2144672531.7693,-37.348236,21.769575
2146627565.9824,-38.014694,13.131912
2148582600.1955,-37.010246,7.3109732
2150537634.4086,-38.353081,0.82325828
2152492668.6217,-36.65572,-3.7958448
2154447702.8348,-35.822952,-24.220621
2156402737.0479,-37.25568,-34.424232
2158357771.261,-37.591831,-39.625305
2160312805.4741,-37.239662,-48.014729
2162267839.6872,-37.512867,-51.280014
2164222873.9003,-36.174019,-58.959259
2166177908.1134,-35.612175,-74.314064
2168132942.3265,-34.928684,-82.950996
2170087976.5396,-34.186836,-99.777069
2172043010.7527,-34.502079,-120.48712
2173998044.9658,-35.576283,-129.88655
2175953079.1789,-35.69342,-141.7442
2177908113.392,-36.346867,-146.6797
2179863147.6051,-35.195004,-157.99141
2181818181.8182,-34.654491,-174.99925
2183773216.0313,-34.896488,163.17635
2185728250.2444,-35.168972,145.0834
2187683284.4575,-36.730103,120.30369
2189638318.6706,-40.2971,101.67543
2191593352.8837,-43.226574,106.05235
2193548387.0968,-43.857723,102.30994
2195503421.3099,-43.717983,85.21862
2197458455.523,-49.436554,64.517769
2199413489.7361,-51.462219,103.68184
2201368523.9492,-50.688934,97.806885
2203323558.1623,-49.987579,121.75011
2205278592.3754,-45.440273,104.68404
2207233626.5885,-49.095097,60.693737
2209188660.8016,-55.1558,113.0629
2211143695.0147,-49.478397,119.21764
2213098729.2278,-47.249599,95.676659
2215053763.4409,-49.231831,85.646744
2217008797.654,-48.655983,116.88488
2218963831.8671,-45.10664,95.995583
2220918866.0802,-44.762142,95.368683
2222873900.2933,-43.112484,85.942291
2224828934.5064,-40.349346,63.883293
2226783968.7195,-43.034252,42.497429
2228739002.9326,-43.187656,47.535385
2230694037.1456,-41.137352,54.978756
2232649071.3587,-38.286018,29.038359
2234604105.5718,-39.042042,11.18711
2236559139.7849,-38.39616,-5.327508
2238514173.998,-40.228775,-19.678761
2240469208.2111,-40.043034,-27.592148
2242424242.4242,-40.419834,-42.98671
2244379276.6373,-42.831547,-53.261997
2246334310.8504,-43.619919,-57.640575
2248289345.0635,-47.01281,-56.932323
2250244379.2766,-47.569633,-24.369711
2252199413.4897,-41.493885,-15.981838
2254154447.7028,-37.69067,-32.844402
2256109481.9159,-35.923344,-58.633057
2258064516.129,-36.043644,-80.719437
2260019550.3421,-37.538788,-91.186485
2261974584.5552,-36.689434,-95.528397
2263929618.7683,-35.545952,-102.80381
2265884652.9814,-34.003437,-117.94263
2267839687.1945,-34.465664,-137.71169
2269794721.4076,-34.844158,-149.71718
2271749755.6207,-34.665169,-156.20354
2273704789.8338,-34.139954,-167.28616
2275659824.0469,-33.564854,178.44507
2277614858.26,-33.454098,165.45891
2279569892.4731,-33.828621,152.47414
2281524926.6862,-33.337196,143.41864
2283479960.8993,-32.781677,128.23402
2285434995.1124,-32.980717,110.5078
2287390029.3255,-33.829437,96.746162
2289345063.5386,-33.640823,84.468895
2291300097.7517,-34.281956,69.630272
2293255131.9648,-34.869499,53.127041
2295210166.1779,-36.623474,44.025578
2297165200.391,-36.823147,40.727909
2299120234.6041,-36.85183,24.840633
2301075268.8172,-37.769638,15.412067
2303030303.0303,-37.975723,9.3990707
2304985337.2434,-38.373409,-7.5412998
2306940371.4565,-39.480873,-17.56039
2308895405.6696,-40.016232,-30.955954
2310850439.8827,-41.533978,-52.875751
2312805474.0958,-47.277508,-64.45414
2314760508.3089,-49.259087,-21.411503
2316715542.522,-44.611809,-16.842985
2318670576.7351,-42.858646,-37.13554
2320625610.9482,-43.991287,-58.508678
2322580645.1613,-46.094624,-59.281384
2324535679.3744,-47.629768,-59.201744
2326490713.5875,-47.817986,-45.260452
2328445747.8006,-45.060909,-38.913605
2330400782.0137,-41.735256,-45.035259
2332355816.2268,-39.519558,-70.064888
2334310850.4399,-39.935844,-96.451302
2336265884.653,-41.937534,-122.44556
2338220918.8661,-44.356556,-109.86049
2340175953.0792,-43.32769,-123.80867
2342130987.2923,-43.729374,-129.10568
2344086021.5054,-45.816399,-132.92377
2346041055.7185,-44.250259,-138.43964
2347996089.9316,-48.401081,-149.96008
2349951124.1447,-44.061874,-123.23451
2351906158.3578,-43.082989,-143.8405
2353861192.5709,-41.641392,-153.43828
2355816226.784,-41.491745,-175.1492
2357771260.9971,-41.862877,171.50253
2359726295.2102,-44.436779,157.76505
2361681329.4233,-45.380669,176.26126
2363636363.6364,-42.636879,158.43013
2365591397.8495,-42.409531,143.13698
2367546432.0626,-43.772564,107.49538
2369501466.2757,-54.195122,90.569801
2371456500.4888,-51.863667,-157.63417
2373411534.7019,-44.69236,-175.37166
2375366568.915,-40.966648,170.71867
2377321603.1281,-39.553856,145.9485
2379276637.3412,-39.273911,131.87997
2381231671.5543,-38.234669,115.29723
2383186705.7674,-39.063206,101.90286
2385141739.9804,-39.19598,95.753311
2387096774.1935,-38.504364,87.888054
2389051808.4066,-37.94054,80.696785
2391006842.6197,-36.717541,69.248299
2392961876.8328,-36.087524,50.953167
2394916911.0459,-37.280594,36.323196
2396871945.259,-37.883118,34.875729
2398826979.4721,-37.389633,29.579317
2400782013.6852,-36.45723,23.260654
2402737047.8983,-35.47617,11.450597
2404692082.1114,-34.865513,-0.36576316
2406647116.3245,-34.274525,-12.209208
2408602150.5376,-33.915676,-26.192858
2410557184.7507,-33.538719,-42.802933
2412512218.9638,-33.839413,-58.323334
2414467253.1769,-34.657063,-72.5858
2416422287.39,-35.586819,-84.962273
2418377321.6031,-36.995083,-93.711472
2420332355.8162,-37.554379,-90.844299
2422287390.0293,-36.818409,-95.208412
2424242424.2424,-35.605721,-102.90834
2426197458.4555,-34.848282,-116.552
2428152492.6686,-34.985905,-132.22353
2430107526.8817,-35.383209,-145.35448
2432062561.0948,-36.618492,-155.59241
2434017595.3079,-37.056023,-157.12512
2435972629.521,-36.05154,-161.37279
2437927663.7341,-35.235321,-177.22282
2439882697.9472,-35.745789,173.61806
2441837732.1603,-35.344204,162.28986
2443792766.3734,-34.869797,148.96564
2445747800.5865,-35.560894,133.54193
2447702834.7996,-36.218178,117.41852
2449657869.0127,-38.129406,112.6304
2451612903.2258,-38.920559,113.32387
2453567937.4389,-37.151371,109.82471
2455522971.652,-37.185764,93.118599
2457478005.8651,-37.552273,85.052315
2459433040.0782,-37.221596,70.847649
2461388074.2913,-38.384888,61.682346
2463343108.5044,-38.543808,56.66383
2465298142.7175,-37.3866,47.782127
2467253176.9306,-37.042313,28.195946
2469208211.1437,-38.971363,5.016037
2471163245.3568,-41.001026,5.5411844
2473118279.5699,-40.89986,-1.6049181
2475073313.783,-43.208214,-18.107607
2477028347.9961,-42.642738,-15.85556
2478983382.2092,-44.508976,-37.932194
2480938416.4223,-53.768604,-23.214996
2482893450.6354,-47.200394,20.892467
2484848484.8485,-42.51265,7.7780437
2486803519.0616,-40.97752,-16.740749
2488758553.2747,-41.434948,-34.479679
2490713587.4878,-43.877884,-48.63036
2492668621.7009,-43.161823,-33.321529
2494623655.914,-41.426426,-47.014694
2496578690.1271,-40.840202,-62.870483
2498533724.3402,-40.916531,-82.652542
2500488758.5533,-43.865467,-90.168915
2502443792.7664,-42.55645,-82.924728
2504398826.9795,-41.182339,-100.12841
2506353861.1926,-41.554863,-129.67978
2508308895.4057,-44.950134,-142.76248
2510263929.6188,-49.991463,-147.94783
2512218963.8319,-53.23901,-127.7472
2514173998.045,-55.162785,-81.250534
2516129032.2581,-46.17886,-55.089458
2518084066.4712,-40.613373,-85.077057
2520039100.6843,-39.947151,-113.33244
2521994134.8974,-39.772968,-123.57401
2523949169.1105,-38.786537,-140.22006
2525904203.3236,-39.530678,-154.82156
2527859237.5367,-39.538162,-167.16249
2529814271.7498,-40.790398,-173.11891
2531769305.9629,-40.235767,-169.68416
2533724340.176,-38.537216,179.01447
2535679374.3891,-37.732403,165.19295
2537634408.6022,-38.461624,146.95244
2539589442.8152,-39.812737,150.10622
2541544477.0283,-38.458019,148.07439
2543499511.2414,-37.00552,144.18542
2545454545.4545,-35.266029,128.68695
2547409579.6676,-34.732407,111.60165
2549364613.8807,-34.532066,98.155113
2551319648.0938,-34.07056,82.413719
2553274682.3069,-34.801098,67.51667
2555229716.52,-34.968067,55.187866
2557184750.7331,-35.94104,45.678173
2559139784.9462,-36.085838,40.371174
2561094819.1593,-35.603203,29.584562
2563049853.3724,-35.264698,21.660431
2565004887.5855,-35.265354,3.8716941
2566959921.7986,-36.443153,-6.5509171
2568914956.0117,-36.487488,-10.824529
2570869990.2248,-36.15493,-20.665318
2572825024.4379,-35.906498,-30.55699
2574780058.651,-35.920582,-47.538208
2576735092.8641,-37.391766,-58.640255
2578690127.0772,-38.097675,-63.316277
2580645161.2903,-37.528423,-67.442665
2582600195.5034,-37.609924,-82.19677
2584555229.7165,-38.562042,-90.863396
2586510263.9296,-39.004364,-99.666512
2588465298.1427,-39.410763,-99.765274
2590420332.3558,-38.603546,-111.34308
2592375366.5689,-38.949593,-117.56732
2594330400.782,-38.848812,-131.98114
2596285434.9951,-39.990662,-137.47781
2598240469.2082,-39.672276,-147.13698
2600195503.4213,-40.211487,-152.1528
2602150537.6344,-41.427689,-162.87863
2604105571.8475,-41.17815,-163.11201
2606060606.0606,-41.856155,-164.54152
2608015640.2737,-40.244595,-160.84259
2609970674.4868,-38.086391,-177.8531
2611925708.6999,-38.582542,164.31064
2613880742.913,-39.002277,155.95859
2615835777.1261,-38.831657,145.60228
2617790811.3392,-39.900581,136.32634
2619745845.5523,-39.390369,130.61325
2621700879.7654,-39.056488,120.75867
2623655913.9785,-39.264706,109.94586
2625610948.1916,-39.318642,100.59912
2627565982.4047,-39.447437,90.218513
2629521016.6178,-39.295143,78.189682
2631476050.8309,-40.034214,68.594345
2633431085.044,-40.869568,51.81406
2635386119.2571,-42.197414,58.157806
2637341153.4702,-41.322056,47.941853
2639296187.6833,-41.529644,41.601974
2641251221.8964,-41.40781,34.100491
2643206256.1095,-40.462204,25.022316
2645161290.3226,-40.992775,7.399354
2647116324.5357,-41.897724,-7.1222544
2649071358.7488,-43.488487,-18.365009
2651026392.9619,-44.061764,-23.947039
2652981427.175,-46.195072,-37.572147
2654936461.3881,-50.68232,-34.87392
2656891495.6012,-49.862106,-2.4826801
2658846529.8143,-46.56974,-9.4751339
2660801564.0274,-46.031776,-22.56712
2662756598.2405,-47.017803,-28.405382
2664711632.4536,-47.528572,-49.158379
2666666666.6667,-51.501827,-31.307623
2668621700.8798,-48.838516,13.094948
2670576735.0929,-42.574745,-1.2621812
2672531769.306,-39.824318,-19.343634
2674486803.5191,-38.16674,-41.962692
2676441837.7322,-38.33791,-63.005531
2678396871.9453,-39.210289,-78.343658
2680351906.1584,-38.827309,-78.028145
2682306940.3715,-37.942387,-99.875244
2684261974.5846,-39.71035,-105.44444
2686217008.7977,-39.23238,-104.08323
2688172043.0108,-37.479572,-114.38683
2690127077.2239,-36.596428,-125.28414
2692082111.437,-36.104767,-144.58467
2694037145.65,-36.743702,-154.27899
2695992179.8631,-36.322769,-162.53444
2697947214.0762,-35.281075,-175.80527
2699902248.2893,-35.77441,166.90564
2701857282.5024,-36.217079,156.96042
2703812316.7155,-36.30513,146.73235
2705767350.9286,-36.766769,135.33598
2707722385.1417,-36.919041,127.5789
2709677419.3548,-36.997234,118.93982
2711632453.5679,-36.434277,106.18883
2713587487.781,-36.609768,89.367752
2715542521.9941,-38.353275,79.377632
2717497556.2072,-38.647583,74.569389
2719452590.4203,-39.473503,69.10891
2721407624.6334,-38.72805,62.799519
2723362658.8465,-38.891487,50.629135
2725317693.0596,-39.204147,43.159557
2727272727.2727,-39.627354,29.99156
2729227761.4858,-40.831448,29.683771
2731182795.6989,-40.19606,26.018808
2733137829.912,-39.583614,19.636499
2735092864.1251,-38.556503,9.6400967
2737047898.3382,-37.867832,-4.8116641
2739002932.5513,-37.59148,-23.220814
2740957966.7644,-39.044037,-49.396458
2742913000.9775,-42.877899,-60.343006
2744868035.1906,-46.247704,-41.013367
2746823069.4037,-44.105206,-37.048763
2748778103.6168,-44.2752,-32.092468
2750733137.8299,-42.578075,-30.101999
2752688172.043,-39.108841,-37.487434
2754643206.2561,-38.393028,-56.932995
2756598240.4692,-37.696667,-68.79425
2758553274.6823,-36.511177,-84.386642
2760508308.8954,-36.462654,-105.45798
2762463343.1085,-37.232395,-117.27006
2764418377.3216,-37.701954,-133.55215
2766373411.5347,-38.062466,-140.62126
2768328445.7478,-37.476879,-153.22681
2770283479.9609,-37.360245,-171.40756
2772238514.174,-38.084812,164.55446
2774193548.3871,-40.065979,148.49774
2776148582.6002,-42.538902,127.05573
2778103616.8133,-47.187057,133.90855
2780058651.0264,-47.02042,139.65466
2782013685.2395,-47.391991,120.19869
2783968719.4526,-52.876053,126.29984
2785923753.6657,-51.518017,154.31287
2787878787.8788,-48.226051,150.02644
2789833822.0919,-50.138245,130.68808
2791788856.305,-49.722836,127.89949
2793743890.5181,-52.567406,134.85664
2795698924.7312,-51.46064,141.46974
2797653958.9443,-49.615273,163.88402
2799608993.1574,-47.128059,154.17136
2801564027.3705,-45.25597,145.74493
2803519061.5836,-43.875469,133.13553
2805474095.7967,-42.831329,123.81488
2807429130.0098,-42.04562,109.0327
2809384164.2229,-42.355934,98.929703
2811339198.436,-41.279598,100.10992
2813294232.6491,-39.430264,84.929253
2815249266.8622,-39.210701,68.632477
2817204301.0753,-39.051586,58.094727
2819159335.2884,-38.638206,45.271763
2821114369.5015,-38.019726,32.415771
2823069403.7146,-39.010151,17.423723
2825024437.9277,-39.226048,11.073816
2826979472.1408,-38.878304,5.1081901
2828934506.3539,-37.833015,-5.1005101
2830889540.567,-37.413746,-20.781225
2832844574.7801,-37.997189,-40.191883
2834799608.9932,-39.354389,-47.263733
2836754643.2063,-39.258667,-54.443745
2838709677.4194,-39.738621,-63.665272
2840664711.6325,-38.892471,-69.113747
2842619745.8456,-38.783092,-88.765411
2844574780.0587,-40.204189,-104.22765
2846529814.2717,-43.213451,-104.07347
2848484848.4848,-42.211952,-100.01464
2850439882.6979,-41.637234,-108.02692
2852394916.911,-41.923019,-104.81664
2854349951.1241,-39.670364,-114.56976
2856304985.3372,-39.020058,-122.9261
2858260019.5503,-37.521286,-140.3367
2860215053.7634,-38.469822,-159.14302
2862170087.9765,-38.668827,-168.50267
2864125122.1896,-39.326229,179.77312
2866080156.4027,-39.710884,169.847
2868035190.6158,-40.469685,161.03908
2869990224.8289,-41.032703,160.20264
2871945259.042,-40.323742,158.82484
2873900293.2551,-38.930149,145.19026
2875855327.4682,-39.336624,131.16226
2877810361.6813,-39.022823,123.96368
2879765395.8944,-38.923168,111.43327
2881720430.1075,-39.222168,100.76248
2883675464.3206,-39.473454,95.368065
2885630498.5337,-37.691429,82.973602
2887585532.7468,-37.895405,64.414551
2889540566.9599,-38.912758,46.597202
2891495601.173,-39.878296,39.762093
2893450635.3861,-39.778969,24.227512
2895405669.5992,-41.472752,11.584509
2897360703.8123,-41.84296,5.1197028
2899315738.0254,-44.830711,-7.1595435
2901270772.2385,-44.260033,8.3780556
2903225806.4516,-41.979191,-5.8142128
2905180840.6647,-43.186413,-25.480875
2907135874.8778,-43.712936,-30.121998
2909090909.0909,-43.148285,-43.65781
2911045943.304,-44.529633,-68.28109
2913000977.5171,-48.134644,-75.902962
2914956011.7302,-49.394962,-69.48185
2916911045.9433,-48.534542,-73.743446
2918866080.1564,-49.48888,-107.72975
2920821114.3695,-60.280735,-167.47275
2922776148.5826,-54.119301,2.4872596
2924731182.7957,-50.088001,-35.607254
2926686217.0088,-54.772137,-44.796051
2928641251.2219,-48.10331,-18.179979
2930596285.435,-44.929733,-41.630379
2932551319.6481,-44.314365,-61.421059
2934506353.8612,-44.351959,-73.865685
2936461388.0743,-44.378521,-79.212494
2938416422.2874,-42.943134,-86.91198
2940371456.5005,-41.526608,-95.27449
2942326490.7136,-40.422428,-113.40141
2944281524.9267,-40.413284,-125.93703
2946236559.1398,-39.22332,-141.54396
2948191593.3529,-39.986908,-161.91846
2950146627.566,-41.422955,-172.51567
2952101661.7791,-41.455147,-178.11351
2954056695.9922,-42.302105,173.31969
2956011730.2053,-41.851913,174.46259
2957966764.4184,-40.985481,159.48663
2959921798.6315,-41.37149,153.39018
2961876832.8446,-40.152363,142.89258
2963831867.0577,-40.648567,122.91338
2965786901.2708,-42.120804,119.87217
2967741935.4839,-41.192959,117.95235
2969696969.697,-40.604294,106.24607
2971652003.9101,-39.567402,95.045311
2973607038.1232,-39.703148,75.380882
2975562072.3363,-41.514351,62.988197
2977517106.5494,-41.297184,59.611603
2979472140.7625,-42.510239,46.101444
2981427174.9756,-43.647713,51.45747
2983382209.1887,-41.721405,49.882099
2985337243.4018,-41.180439,40.950588
2987292277.6149,-40.197681,28.142855
2989247311.828,-40.776974,13.248232
2991202346.0411,-41.153862,9.1860876
2993157380.2542,-40.052555,4.8566856
2995112414.4673,-39.704315,-7.3463969
2997067448.6804,-39.449436,-17.407799
2999022482.8935,-38.487041,-27.346392
3000977517.1065,-38.035069,-41.17009
3002932551.3196,-38.16069,-55.688892
3004887585.5327,-37.75098,-70.961761
3006842619.7458,-38.839966,-89.402817
3008797653.9589,-40.421143,-95.29335
3010752688.172,-40.946945,-96.220406
3012707722.3851,-39.745407,-98.718155
3014662756.5982,-38.434013,-110.02071
3016617790.8113,-38.352543,-124.66422
3018572825.0244,-37.297138,-138.18626
3020527859.2375,-37.2985,-158.39063
3022482893.4506,-38.441624,-176.33626
3024437927.6637,-38.930714,177.17665
3026392961.8768,-39.316727,165.14687
3028347996.0899,-38.413731,152.19531
3030303030.303,-38.239681,126.73981
3032258064.5161,-40.425053,99.637833
3034213098.7292,-44.437778,87.217812
3036168132.9423,-48.411774,87.697014
3038123167.1554,-47.738804,114.01068
3040078201.3685,-44.709961,92.485847
