Freq(Hz),S12(DB),S12(DEG)
4000000000,-36.830856,74.891045
4004511278.1955,-37.877972,79.637299
4009022556.391,-34.235291,56.965256
4013533834.5865,-35.63031,29.516369
4018045112.782,-36.083546,12.150342
4022556390.9774,-36.828835,-3.0020518
4027067669.1729,-36.523045,-23.360992
4031578947.3684,-37.760662,-38.387188
4036090225.5639,-37.48061,-44.108734
4040601503.7594,-37.188931,-70.998184
4045112781.9549,-36.504902,-90.967918
4049624060.1504,-37.803982,-118.05154
4054135338.3459,-40.422394,-143.19867
4058646616.5414,-41.807396,-153.81158
4063157894.7368,-44.166233,-170.38644
4067669172.9323,-48.15329,-108.21762
4072180451.1278,-39.846485,-144.70813
4076691729.3233,-38.422127,-173.64067
4081203007.5188,-39.214855,143.59808
4085714285.7143,-42.71566,129.80141
4090225563.9098,-40.352127,127.66278
4094736842.1053,-40.428772,92.710732
4099248120.3008,-41.92606,71.707092
4103759398.4962,-43.276367,68.950882
4108270676.6917,-41.990898,52.494709
4112781954.8872,-42.387733,42.807323
4117293233.0827,-39.283264,26.728687
4121804511.2782,-39.496208,-16.647089
4126315789.4737,-44.2845,-12.121233
4130827067.6692,-42.195877,2.5556252
4135338345.8647,-36.545589,-34.467255
4139849624.0602,-36.543301,-70.822525
4144360902.2556,-38.147118,-83.649109
4148872180.4511,-36.513687,-105.92662
4153383458.6466,-36.257072,-128.97589
4157894736.8421,-37.650944,-146.46719
4162406015.0376,-37.191246,-159.73195
4166917293.2331,-36.789856,-176.75092
4171428571.4286,-36.686459,157.36234
4175939849.6241,-36.398212,147.98494
4180451127.8195,-36.010529,134.89024
4184962406.015,-34.879784,111.27045
4189473684.2105,-34.976341,91.274361
4193984962.406,-35.556412,64.185524
4198496240.6015,-37.963421,53.382271
4203007518.797,-37.636051,40.263329
4207518796.9925,-37.785553,31.134998
4212030075.188,-37.482136,16.000139
4216541353.3835,-36.909336,9.4288521
4221052631.5789,-35.504982,-12.00307
4225563909.7744,-35.876308,-38.562584
4230075187.9699,-36.395546,-46.126396
4234586466.1654,-35.247284,-69.199883
4239097744.3609,-35.21479,-80.904968
4243609022.5564,-34.717922,-115.21118
4248120300.7519,-37.050011,-137.00838
4252631578.9474,-38.37384,-124.8066
4257142857.1429,-35.191704,-152.67226
4261654135.3383,-36.577816,-175.03848
4266165413.5338,-37.493702,170.7366
4270676691.7293,-36.84145,166.38641
4275187969.9248,-35.508514,148.87439
4279699248.1203,-35.126835,122.48424
4284210526.3158,-35.542145,98.119545
4288721804.5113,-36.004616,82.335045
4293233082.7068,-35.617146,65.264114
4297744360.9023,-36.00267,36.935295
4302255639.0977,-38.417583,7.5425935
4306766917.2932,-39.660084,10.04635
4311278195.4887,-40.688873,0.05672545
4315789473.6842,-41.203434,-7.2661805
4320300751.8797,-38.691643,-14.9637
4324812030.0752,-39.120811,-44.288677
4329323308.2707,-40.181671,-66.52697
4333834586.4662,-42.198372,-91.626648
4338345864.6617,-45.493328,-76.637642
4342857142.8571,-41.615929,-77.515877
4347368421.0526,-41.690849,-85.288239
4351879699.2481,-37.174332,-108.10062
4356390977.4436,-37.938339,-147.95387
4360902255.6391,-37.298286,-156.60822
4365413533.8346,-39.193077,176.81616
4369924812.0301,-38.35376,163.92651
4374436090.2256,-37.643974,155.40874
4378947368.4211,-34.959496,136.1424
4383458646.6165,-34.914249,102.55742
4387969924.812,-34.105484,87.316658
4392481203.0075,-33.817928,57.043819
4396992481.203,-34.535103,35.613174
4401503759.3985,-34.140621,27.49823
4406015037.594,-32.580544,7.6092176
4410526315.7895,-31.610863,-23.119387
4415037593.985,-32.236965,-50.342384
4419548872.1805,-34.423126,-66.445671
4424060150.3759,-33.630016,-74.728424
4428571428.5714,-32.8713,-96.097603
4433082706.7669,-33.033051,-121.42378
4437593984.9624,-35.011879,-135.95407
4442105263.1579,-34.798325,-136.48888
4446616541.3534,-34.397572,-161.2325
4451127819.5489,-34.01524,-170.84016
4455639097.7444,-33.162132,175.4209
4460150375.9398,-33.241566,154.78738
4464661654.1353,-33.547478,137.55302
4469172932.3308,-33.362236,120.04807
4473684210.5263,-34.868832,103.97972
4478195488.7218,-34.616795,95.462112
4482706766.9173,-35.400921,81.076736
4487218045.1128,-35.093502,72.616096
4491729323.3083,-33.934105,53.368599
4496240601.5038,-33.879597,32.938206
4500751879.6992,-35.301365,14.125533
4505263157.8947,-35.36655,12.638743
4509774436.0902,-34.513615,-2.539144
4514285714.2857,-34.298813,-25.208952
4518796992.4812,-34.373703,-45.541542
4523308270.6767,-36.849022,-59.42078
4527819548.8722,-34.546505,-59.713402
4532330827.0677,-33.022301,-90.371315
4536842105.2632,-35.888733,-115.32899
4541353383.4586,-37.477367,-133.2715
4545864661.6541,-36.651402,-118.50819
4550375939.8496,-35.801392,-150.14066
4554887218.0451,-34.372318,-158.55855
4559398496.2406,-34.272774,171.19135
4563909774.4361,-35.363789,148.75569
4568421052.6316,-37.911854,135.93085
4572932330.8271,-37.445679,128.70648
4577443609.0226,-34.46949,120.59686
4581954887.218,-34.08334,82.477219
4586466165.4135,-36.377048,68.355347
4590977443.609,-34.372189,60.09111
4595488721.8045,-33.724659,29.521484
4600000000,-35.451099,4.7827892
4604511278.1955,-36.247265,-5.5967102
4609022556.391,-36.265816,-17.711712
4613533834.5865,-36.154339,-34.153755
4618045112.782,-34.690601,-45.947491
4622556390.9774,-34.153446,-72.601913
4627067669.1729,-34.286011,-96.673119
4631578947.3684,-35.547935,-110.85432
4636090225.5639,-33.659088,-125.1246
4640601503.7594,-33.771114,-157.01076
4645112781.9549,-36.247681,-172.91797
4649624060.1504,-36.175545,-170.09421
4654135338.3459,-33.851185,168.06589
4658646616.5414,-33.814541,141.31819
4663157894.7368,-33.914345,123.73018
4667669172.9323,-34.526798,99.31028
4672180451.1278,-35.69249,90.308151
4676691729.3233,-34.7817,80.655502
4681203007.5188,-34.526207,59.430073
4685714285.7143,-35.35413,49.243252
4690225563.9098,-34.600353,33.307892
4694736842.1053,-32.774429,16.61878
4699248120.3008,-32.327995,-5.2227182
4703759398.4962,-33.77599,-23.804846
4708270676.6917,-32.404198,-41.100803
4712781954.8872,-33.805248,-61.463104
4717293233.0827,-34.462456,-80.72422
4721804511.2782,-34.984428,-77.794533
4726315789.4737,-32.666531,-101.17239
4730827067.6692,-32.775616,-120.57385
4735338345.8647,-33.939137,-146.36214
4739849624.0602,-33.676716,-156.0649
4744360902.2556,-34.759163,-177.49495
4748872180.4511,-35.796913,178.12354
4753383458.6466,-34.350304,163.85849
4757894736.8421,-34.346001,148.8839
4762406015.0376,-33.85994,135.2104
4766917293.2331,-33.839714,116.83299
4771428571.4286,-33.02853,98.489334
4775939849.6241,-33.192394,76.992737
4780451127.8195,-34.431076,53.746418
4784962406.015,-35.740448,46.020046
4789473684.2105,-35.188217,39.332821
4793984962.406,-34.258942,14.976651
4798496240.6015,-34.808559,0.61784017
4803007518.797,-34.449398,-19.594255
4807518796.9925,-35.593811,-33.463554
4812030075.188,-35.439766,-47.611588
4816541353.3835,-35.894199,-59.865982
4821052631.5789,-34.200287,-72.034996
4825563909.7744,-34.465981,-88.266022
4830075187.9699,-33.056656,-104.76797
4834586466.1654,-32.127544,-132.61333
4839097744.3609,-32.701359,-155.29141
4843609022.5564,-33.550644,-177.03835
4848120300.7519,-34.604984,166.33577
4852631578.9474,-34.638977,162.5488
4857142857.1429,-33.805428,142.79849
4861654135.3383,-33.304165,121.47421
4866165413.5338,-33.382542,99.654823
4870676691.7293,-33.965439,81.554726
4875187969.9248,-34.475548,66.971779
4879699248.1203,-33.928371,52.648216
4884210526.3158,-33.886864,33.695202
4888721804.5113,-34.169834,19.644583
4893233082.7068,-33.414169,5.2081041
4897744360.9023,-32.654945,-10.296501
4902255639.0977,-32.347832,-36.75465
4906766917.2932,-33.243843,-50.091385
4911278195.4887,-32.013863,-70.334709
4915789473.6842,-32.736664,-87.771454
4920300751.8797,-32.651951,-106.03117
4924812030.0752,-32.185352,-118.04885
4929323308.2707,-31.077045,-133.20586
4933834586.4662,-31.117727,-164.9117
4938345864.6617,-31.866467,-172.52686
4942857142.8571,-31.06699,162.31955
4947368421.0526,-32.095264,143.1725
4951879699.2481,-31.915918,131.61244
4956390977.4436,-32.365139,107.50345
4960902255.6391,-33.376518,99.759651
4965413533.8346,-31.728575,84.885155
4969924812.0301,-32.499172,62.259621
4974436090.2256,-32.847015,46.782776
4978947368.4211,-33.213215,30.469311
4983458646.6165,-33.922195,13.964704
4987969924.812,-33.776867,6.3230171
4992481203.0075,-34.218273,-15.053708
4996992481.203,-35.149719,-16.799971
5001503759.3985,-33.675388,-24.703146
5006015037.594,-32.474682,-49.753422
5010526315.7895,-33.161022,-70.071526
5015037593.985,-34.278206,-87.522644
5019548872.1805,-34.429256,-95.309792
5024060150.3759,-33.477699,-111.04233
5028571428.5714,-34.320545,-126.13461
5033082706.7669,-33.606541,-142.73558
5037593984.9624,-33.749714,-159.68074
5042105263.1579,-33.893311,-178.70525
5046616541.3534,-33.111294,167.70897
5051127819.5489,-33.506001,140.11487
5055639097.7444,-36.117329,118.87325
5060150375.9398,-37.795193,117.44479
5064661654.1353,-36.81987,118.74786
5069172932.3308,-34.349388,99.694878
5073684210.5263,-33.672707,75.823318
5078195488.7218,-33.58287,52.428112
5082706766.9173,-34.213852,29.450321
5087218045.1128,-35.659,11.51386
5091729323.3083,-36.475464,6.7060494
5096240601.5038,-34.025719,-9.5885277
5100751879.6992,-34.164303,-30.976067
5105263157.8947,-33.686981,-49.111904
5109774436.0902,-34.04517,-76.300613
5114285714.2857,-34.728535,-89.560226
5118796992.4812,-34.472347,-98.573677
5123308270.6767,-33.205418,-121.54017
5127819548.8722,-32.981575,-137.56641
5132330827.0677,-32.53495,-158.31932
5136842105.2632,-32.846462,-179.95053
5141353383.4586,-32.425606,158.44604
5145864661.6541,-33.034607,137.9592
5150375939.8496,-34.752449,125.11001
5154887218.0451,-34.446869,110.56423
5159398496.2406,-33.538181,100.94868
5163909774.4361,-33.063263,78.740364
5168421052.6316,-33.243954,62.359489
5172932330.8271,-33.718929,46.304955
5177443609.0226,-32.368748,28.657917
5181954887.218,-32.483273,3.059746
5186466165.4135,-34.323376,-9.3261108
5190977443.609,-34.420799,-27.280014
5195488721.8045,-34.6912,-31.313795
5200000000,-32.963123,-44.941418
5204511278.1955,-32.420471,-71.094521
5209022556.391,-34.464508,-87.311676
5213533834.5865,-34.424206,-91.737976
5218045112.782,-32.78553,-106.5937
5222556390.9774,-32.60043,-131.1618
5227067669.1729,-33.636395,-148.18538
5231578947.3684,-33.818455,-153.3344
5236090225.5639,-32.805763,-169.32283
5240601503.7594,-31.467464,170.45839
5245112781.9549,-31.235703,148.33202
5249624060.1504,-32.121777,127.49667
5254135338.3459,-32.52084,113.29185
5258646616.5414,-33.726044,94.767746
5263157894.7368,-33.096546,83.289284
5267669172.9323,-33.396366,69.291832
5272180451.1278,-32.521461,48.847878
5276691729.3233,-33.540943,27.201679
5281203007.5188,-33.77161,12.310351
5285714285.7143,-35.14426,-4.2802615
5290225563.9098,-35.476501,-11.045786
5294736842.1053,-35.16571,-34.253399
5299248120.3008,-36.759811,-38.35535
5303759398.4962,-35.706127,-49.428913
5308270676.6917,-34.8587,-64.818184
5312781954.8872,-34.759129,-85.007179
5317293233.0827,-35.38316,-97.892555
5321804511.2782,-34.270157,-109.86738
5326315789.4737,-33.622078,-131.93024
5330827067.6692,-33.794895,-150.88159
5335338345.8647,-33.885738,-160.48793
5339849624.0602,-32.774715,176.42586
5344360902.2556,-31.604624,155.9496
5348872180.4511,-31.878916,135.59076
5353383458.6466,-32.012146,110.16206
5357894736.8421,-32.098488,95.858261
5362406015.0376,-32.205341,70.637917
5366917293.2331,-32.345718,61.162926
5371428571.4286,-32.189949,36.320286
5375939849.6241,-32.907681,19.670486
5380451127.8195,-32.41441,7.274045
5384962406.015,-32.238831,-15.07106
5389473684.2105,-32.761589,-30.416044
5393984962.406,-32.010796,-48.355068
5398496240.6015,-31.572765,-67.070877
5403007518.797,-32.189159,-92.078377
5407518796.9925,-33.165134,-101.56335
5412030075.188,-33.097885,-113.93855
5416541353.3835,-31.948368,-126.99332
5421052631.5789,-32.051453,-155.84882
5425563909.7744,-33.734837,-168.25743
5430075187.9699,-33.260239,-178.59087
5434586466.1654,-32.638245,166.9184
5439097744.3609,-32.622341,151.0097
5443609022.5564,-32.305416,136.71666
5448120300.7519,-31.32658,115.09756
5452631578.9474,-32.287769,95.820892
5457142857.1429,-31.86953,83.785263
5461654135.3383,-32.672031,60.933826
5466165413.5338,-33.383236,50.022141
5470676691.7293,-33.14101,40.085556
5475187969.9248,-32.433361,24.508003
5479699248.1203,-32.593956,7.1125708
5484210526.3158,-31.825039,-8.2399387
5488721804.5113,-31.760498,-31.558186
5493233082.7068,-32.18269,-48.338543
5497744360.9023,-32.653938,-61.471191
5502255639.0977,-32.940422,-78.812363
5506766917.2932,-32.845974,-96.089424
5511278195.4887,-32.990017,-112.24681
5515789473.6842,-34.092991,-134.86685
5520300751.8797,-34.689682,-139.04027
5524812030.0752,-34.09301,-158.05168
5529323308.2707,-36.045341,-173.54694
5533834586.4662,-35.454651,-177.11241
5538345864.6617,-34.659569,173.62369
5542857142.8571,-32.984524,156.37726
5547368421.0526,-32.386963,134.86864
5551879699.2481,-31.841131,111.4296
5556390977.4436,-33.176132,90.385643
5560902255.6391,-32.914417,76.819244
5565413533.8346,-32.655502,54.119911
5569924812.0301,-33.328934,39.840912
5574436090.2256,-32.908062,17.645216
5578947368.4211,-33.959766,3.500335
5583458646.6165,-33.608402,-10.210918
5587969924.812,-33.362488,-29.942919
5592481203.0075,-32.421494,-53.576923
5596992481.203,-33.9025,-78.216766
5601503759.3985,-35.349415,-91.178474
5606015037.594,-34.45837,-97.479446
5610526315.7895,-33.060322,-122.75176
5615037593.985,-33.731567,-146.99588
5619548872.1805,-34.39006,-165.18921
5624060150.3759,-34.959015,-179.51909
5628571428.5714,-34.554615,161.17537
5633082706.7669,-35.520145,143.80473
5637593984.9624,-34.735447,128.95578
5642105263.1579,-35.943375,109.14335
5646616541.3534,-35.532791,100.86641
5651127819.5489,-35.560726,88.074036
5655639097.7444,-35.096237,65.761299
5660150375.9398,-35.122719,53.406227
5664661654.1353,-34.916145,34.328979
5669172932.3308,-36.013706,20.057302
5673684210.5263,-35.075394,6.3885546
5678195488.7218,-35.577324,-11.676853
5682706766.9173,-35.950577,-21.406713
5687218045.1128,-34.81469,-29.52071
5691729323.3083,-33.910221,-50.558701
5696240601.5038,-33.843681,-72.396782
5700751879.6992,-35.172382,-87.174973
5705263157.8947,-35.631752,-93.818771
5709774436.0902,-33.873653,-107.15828
5714285714.2857,-33.010487,-128.38586
5718796992.4812,-33.980576,-150.20908
5723308270.6767,-34.697109,-166.91725
5727819548.8722,-34.867702,-172.08011
5732330827.0677,-34.732903,164.90079
5736842105.2632,-35.606457,159.37843
5741353383.4586,-34.074913,141.87572
5745864661.6541,-35.563377,123.92478
5750375939.8496,-34.07309,119.03005
5754887218.0451,-33.126469,102.40242
5759398496.2406,-32.680664,79.420242
5763909774.4361,-32.565563,61.382412
5768421052.6316,-33.391354,39.143921
5772932330.8271,-33.607624,28.850271
5777443609.0226,-33.09341,12.23562
5781954887.218,-33.266098,-8.9661751
5786466165.4135,-33.14938,-24.538984
5790977443.609,-33.421398,-50.163635
5795488721.8045,-33.876003,-63.583179
5800000000,-34.591282,-81.553734
END

