!CSV A.01.01
!Keysight Technologies,P5008B,MY61100146,A.17.20.08
!Date: Saturday, November 18, 2023 14:01:52
!Source: Standard

BEGIN CH1_DATA
Freq(Hz),S12(DB),S12(DEG)
2000000000,-35.976582,-64.371979
2010000000,-33.465755,-130.47484
2020000000,-35.397552,-176.94611
2030000000,-34.18663,117.64832
2040000000,-38.45628,56.638744
2050000000,-39.866577,-31.755714
2060000000,-52.819866,31.400293
2070000000,-41.892269,-38.425129
2080000000,-48.262508,-112.89822
2090000000,-43.315502,-37.907284
2100000000,-41.106472,-61.982887
2110000000,-39.568291,-121.68443
2120000000,-33.803047,166.55042
2130000000,-36.443439,91.299606
2140000000,-34.88549,38.458427
2150000000,-38.348328,-17.869797
2160000000,-37.714314,-43.78516
2170000000,-33.9076,-104.20966
2180000000,-36.317326,-160.93791
2190000000,-42.612946,88.695557
2200000000,-47.595623,153.49826
2210000000,-44.479038,122.1109
2220000000,-43.512436,73.691406
2230000000,-43.100891,38.859119
2240000000,-39.937607,-28.926756
2250000000,-48.349339,-32.480282
2260000000,-37.675591,-94.240616
2270000000,-36.192581,-154.39618
2280000000,-35.032207,153.98557
2290000000,-34.85936,85.914635
2300000000,-37.681923,33.091198
2310000000,-40.376846,-27.359764
2320000000,-41.250065,-54.398491
2330000000,-40.767406,-43.357853
2340000000,-43.306572,-134.93123
2350000000,-45.595966,-143.87955
2360000000,-46.988476,152.71979
2370000000,-59.03933,-160.87027
2380000000,-38.307541,136.14801
2390000000,-37.664833,79.524139
2400000000,-36.730896,31.596336
2410000000,-33.167854,-34.44492
2420000000,-36.129189,-93.260315
2430000000,-35.918427,-146.91571
2440000000,-35.435936,171.21581
2450000000,-38.181328,112.01734
2460000000,-37.297043,67.116692
2470000000,-39.153996,5.9671931
2480000000,-45.877956,-47.160717
2490000000,-42.856476,-38.10598
2500000000,-42.571533,-90.420189
2510000000,-51.168266,-144.70767
2520000000,-39.606476,-116.3006
2530000000,-41.202824,-165.98015
2540000000,-38.260815,156.30656
2550000000,-33.727627,93.567947
2560000000,-35.352444,31.851078
2570000000,-35.891075,-13.251129
2580000000,-37.637981,-66.252556
2590000000,-39.852291,-111.71681
2600000000,-40.198582,-155.33418
2610000000,-37.578384,-177.96475
2620000000,-40.126534,124.79967
2630000000,-40.491138,74.098679
2640000000,-40.909599,40.275967
2650000000,-44.73447,-5.2256866
2660000000,-47.136208,-10.565921
2670000000,-43.609623,-1.6353003
2680000000,-39.830994,-75.793404
2690000000,-35.926888,-129.43768
2700000000,-35.541611,164.30861
2710000000,-36.655582,119.70848
2720000000,-39.329205,65.229965
2730000000,-40.908504,29.977667
2740000000,-38.019104,-34.865688
2750000000,-42.22718,-36.100399
2760000000,-36.368576,-98.257851
2770000000,-38.563492,-171.49185
2780000000,-47.366093,163.09903
2790000000,-47.940353,139.64929
2800000000,-48.320202,135.00882
2810000000,-41.629547,97.18058
2820000000,-39.232391,40.250206
2830000000,-37.447086,-18.883747
2840000000,-39.17461,-72.237595
2850000000,-42.31831,-113.49261
2860000000,-39.132736,-161.64432
2870000000,-43.072533,170.84341
2880000000,-39.516167,118.69962
2890000000,-39.041359,50.819374
2900000000,-44.141346,-0.95371532
2910000000,-44.811649,-47.430214
2920000000,-49.599377,-106.66563
2930000000,-45.435627,-45.127991
2940000000,-42.146854,-96.958763
2950000000,-40.342548,-175.95074
2960000000,-41.788811,150.36575
2970000000,-41.295311,102.96993
2980000000,-43.161213,55.459751
2990000000,-41.250053,13.066738
3000000000,-38.627541,-35.636978
3010000000,-41.566891,-95.229507
3020000000,-37.648064,-152.39507
3030000000,-38.557007,131.74689
3040000000,-46.752895,97.005951
3050000000,-52.236122,100.9567
3060000000,-54.732952,20.042234
3070000000,-52.444798,19.26091
3080000000,-42.689526,-63.781235
3090000000,-50.25,28.85005
3100000000,-45.106766,-53.022686
3110000000,-42.373985,-105.15831
3120000000,-37.651405,-151.93109
3130000000,-36.295948,125.03463
3140000000,-39.98896,52.623119
3150000000,-40.839642,-4.7542934
3160000000,-45.052631,-25.976152
3170000000,-44.170856,-69.643692
3180000000,-42.843643,-132.35695
3190000000,-40.759647,-150.84949
3200000000,-42.77969,124.30174
3210000000,-50.866638,90.100739
3220000000,-51.71077,45.558048
3230000000,-45.906334,106.29458
3240000000,-40.690453,50.131104
3250000000,-39.022198,-27.253183
3260000000,-39.708843,-86.625153
3270000000,-40.556431,-137.67599
3280000000,-45.42469,-157.9037
3290000000,-39.799328,153.50592
3300000000,-39.709629,100.5498
3310000000,-40.282082,40.405071
3320000000,-39.066708,-19.228252
3330000000,-46.619648,-31.713511
3340000000,-48.07341,-91.187386
3350000000,-43.257694,-115.7416
3360000000,-44.744766,-128.38264
3370000000,-42.448193,148.71745
3380000000,-49.493309,133.01598
3390000000,-42.489033,116.40839
3400000000,-41.185036,66.882805
3410000000,-37.903702,11.941095
3420000000,-40.120331,-46.791138
3430000000,-41.817394,-85.305397
3440000000,-40.47657,-123.92333
3450000000,-37.288105,-163.23181
3460000000,-40.308422,134.30026
3470000000,-39.508522,89.415985
3480000000,-42.05304,54.403549
3490000000,-38.989731,18.728046
3500000000,-39.684731,-36.731918
3510000000,-44.658829,-85.971428
3520000000,-42.453934,-79.004784
3530000000,-42.182987,-150.82211
3540000000,-39.385075,-175.57878
3550000000,-40.185162,135.739
3560000000,-37.882671,90.869415
3570000000,-39.457184,27.02289
3580000000,-40.179768,-13.719631
3590000000,-42.008736,-51.233459
3600000000,-39.230129,-82.639618
3610000000,-40.976479,-135.03111
3620000000,-40.259815,177.57178
3630000000,-42.129417,128.11485
3640000000,-46.018528,89.905396
3650000000,-41.986259,90.206207
3660000000,-40.967663,45.054527
3670000000,-42.019596,-14.632663
3680000000,-39.567081,-48.543713
3690000000,-39.19281,-92.587257
3700000000,-40.419357,-154.2943
3710000000,-40.583263,164.33112
3720000000,-42.996685,132.16901
3730000000,-39.126575,90.512032
3740000000,-40.463528,28.494963
3750000000,-43.15424,-9.7975483
3760000000,-44.424442,-69.288406
3770000000,-49.093906,-115.40982
3780000000,-59.172131,-90.404022
3790000000,-42.375549,-118.87019
3800000000,-43.603073,-171.22357
3810000000,-40.939594,129.52335
3820000000,-44.180649,97.20459
3830000000,-42.616501,48.557316
3840000000,-42.169853,-3.3257892
3850000000,-42.340981,-30.704859
3860000000,-44.677834,-99.606812
3870000000,-44.36974,-131.99359
3880000000,-42.238663,177.95119
3890000000,-45.562378,131.4632
3900000000,-45.831242,121.57938
3910000000,-52.3559,71.913925
3920000000,-48.079052,58.50956
3930000000,-43.356682,24.257143
3940000000,-43.33297,-39.952148
3950000000,-44.656471,-117.07962
3960000000,-47.332108,-149.75864
3970000000,-48.629532,-155.10555
3980000000,-49.130413,154.04608
3990000000,-44.060081,105.24557
4000000000,-46.75861,65.506958
END

