!CSV A.01.01
!Keysight Technologies,P5008B,MY61100146,A.17.20.08
!Date: Saturday, November 18, 2023 13:01:47
!Source: Standard

BEGIN CH1_DATA
Freq(Hz),S12(DB),S12(DEG)
2000000000,-34.591236,-63.573242
2001955034.2131,-34.715424,-73.665466
2003910068.4262,-33.558216,-83.98423
2005865102.6393,-33.184196,-100.76775
2007820136.8524,-33.482265,-114.83057
2009775171.0655,-33.589546,-130.56384
2011730205.2786,-34.316563,-142.98999
2013685239.4917,-35.466103,-152.79242
2015640273.7048,-35.480347,-158.53307
2017595307.9179,-35.799755,-164.52708
2019550342.131,-35.555935,-174.14938
2021505376.3441,-34.616432,177.63733
2023460410.5572,-34.651642,162.57202
2025415444.7703,-34.398792,156.01596
2027370478.9834,-33.766758,139.63374
2029325513.1965,-34.156467,124.51715
2031280547.4096,-34.051418,107.76584
2033235581.6227,-35.700909,96.024857
2035190615.8358,-35.027645,85.432938
2037145650.0489,-36.176205,64.536263
2039100684.262,-38.445351,60.305843
2041055718.4751,-37.968964,63.909119
2043010752.6882,-36.132317,47.082764
2044965786.9013,-35.937614,27.677776
2046920821.1144,-37.210426,1.3118548
2048875855.3275,-38.013706,-9.7851706
2050830889.5406,-38.627033,-34.787758
2052785923.7537,-40.6175,-68.571968
2054740957.9668,-45.814941,-116.28905
2056695992.1799,-64.57531,122.14582
2058651026.393,-56.977108,7.4638515
2060606060.6061,-52.596359,-3.5878618
2062561094.8192,-58.058662,-2.9711041
2064516129.0323,-56.618835,65.771263
2066471163.2454,-45.880257,38.295578
2068426197.4585,-44.307785,-5.3237619
2070381231.6716,-44.974049,-23.651884
2072336265.8847,-45.14476,-39.680779
2074291300.0978,-44.729229,-62.817871
2076246334.3109,-51.012154,-73.184456
2078201368.5239,-47.415348,-64.441238
2080156402.737,-49.724663,-110.55083
2082111436.9501,-52.425812,-98.715683
2084066471.1632,-52.230667,168.36797
2086021505.3763,-50.528187,53.066479
2087976539.5894,-45.829556,16.081089
2089931573.8025,-43.213005,-29.088638
2091886608.0156,-44.396542,-44.993938
2093841642.2287,-44.76643,-77.679573
2095796676.4418,-47.480404,-57.800789
2097751710.6549,-44.739315,-45.343163
2099706744.868,-39.868694,-63.410091
2101661779.0811,-38.680317,-84.467369
2103616813.2942,-39.76144,-99.409416
2105571847.5073,-38.139584,-97.914589
2107526881.7204,-36.612244,-126.71175
2109481915.9335,-39.107777,-131.33917
2111436950.1466,-37.893986,-147.16025
2113391984.3597,-36.666988,-155.89796
2115347018.5728,-36.556808,-156.23746
2117302052.7859,-34.999012,-168.86279
2119257086.999,-33.797714,177.51796
2121212121.2121,-33.49482,158.12773
2123167155.4252,-32.208725,136.13763
2125122189.6383,-32.679405,111.8651
2127077223.8514,-34.722134,97.560112
2129032258.0645,-35.832874,90.133095
2130987292.2776,-35.77195,82.566025
2132942326.4907,-36.306107,80.781166
2134897360.7038,-35.207699,65.844566
2136852394.9169,-34.845108,52.802959
2138807429.13,-36.287365,37.572975
2140762463.3431,-36.159679,27.227268
2142717497.5562,-36.927052,15.426143
2144672531.7693,-37.283123,5.2044315
2146627565.9824,-38.73616,5.2605329
2148582600.1955,-37.13237,-3.3868101
2150537634.4086,-40.275959,-18.066881
2152492668.6217,-38.354668,-19.695196
2154447702.8348,-36.670998,-32.196056
2156402737.0479,-38.598473,-43.959801
2158357771.261,-39.299793,-49.897923
2160312805.4741,-38.584774,-57.204605
2162267839.6872,-39.539165,-65.542305
2164222873.9003,-39.197521,-61.414623
2166177908.1134,-37.750004,-73.706604
2168132942.3265,-36.325512,-82.625336
2170087976.5396,-35.622601,-104.70397
2172043010.7527,-36.005978,-126.00534
2173998044.9658,-37.842682,-138.83994
2175953079.1789,-38.902985,-148.1696
2177908113.392,-39.545052,-145.02324
2179863147.6051,-38.093849,-147.26231
2181818181.8182,-35.830509,-167.51544
2183773216.0313,-36.222221,161.72569
2185728250.2444,-37.150795,144.05241
2187683284.4575,-38.329628,111.91338
2189638318.6706,-43.708633,78.080467
2191593352.8837,-51.766777,73.216164
2193548387.0968,-57.480846,147.5712
2195503421.3099,-50.346344,115.05664
2197458455.523,-57.48851,-80.101547
2199413489.7361,-46.165421,-162.16878
2201368523.9492,-45.802891,174.99556
2203323558.1623,-44.007137,165.52815
2205278592.3754,-42.279976,146.36823
2207233626.5885,-43.415985,134.05544
2209188660.8016,-41.740799,131.13232
2211143695.0147,-41.324276,114.91547
2213098729.2278,-40.686699,100.79235
2215053763.4409,-42.000259,82.313446
2217008797.654,-42.476265,97.033806
2218963831.8671,-40.533264,81.529221
2220918866.0802,-41.474613,71.206734
2222873900.2933,-40.924191,67.497238
2224828934.5064,-38.408066,56.006516
2226783968.7195,-39.356277,33.761475
2228739002.9326,-41.116455,33.448883
2230694037.1456,-38.552921,39.146469
2232649071.3587,-36.31184,12.499951
2234604105.5718,-37.660957,-8.9849844
2236559139.7849,-38.044483,-16.280609
2238514173.998,-38.570091,-31.43376
2240469208.2111,-38.841759,-39.943874
2242424242.4242,-39.075996,-52.808212
2244379276.6373,-40.116405,-66.484344
2246334310.8504,-41.067387,-81.117615
2248289345.0635,-45.336582,-91.842567
2250244379.2766,-48.548908,-58.32819
2252199413.4897,-43.117237,-33.321381
2254154447.7028,-38.991203,-47.642715
2256109481.9159,-36.933727,-74.395782
2258064516.129,-36.804043,-95.520508
2260019550.3421,-38.067238,-109.82232
2261974584.5552,-38.538406,-116.84055
2263929618.7683,-38.866573,-116.37162
2265884652.9814,-36.174366,-123.14016
2267839687.1945,-36.24057,-145.02896
2269794721.4076,-37.050529,-157.26584
2271749755.6207,-36.81554,-156.92555
2273704789.8338,-35.497208,-172.54884
2275659824.0469,-35.531025,173.05199
2277614858.26,-35.428051,162.33116
2279569892.4731,-35.44347,148.43607
2281524926.6862,-35.056156,136.97708
2283479960.8993,-35.664616,123.49168
2285434995.1124,-35.500671,109.11692
2287390029.3255,-36.699741,99.122353
2289345063.5386,-36.334324,84.651054
2291300097.7517,-37.256985,76.992859
2293255131.9648,-37.271023,60.809006
2295210166.1779,-39.483143,52.030365
2297165200.391,-39.126762,51.158554
2299120234.6041,-39.980583,40.65052
2301075268.8172,-40.042194,35.78059
2303030303.0303,-39.098473,31.630169
2304985337.2434,-39.32254,9.194272
2306940371.4565,-41.302418,5.2184224
2308895405.6696,-40.220448,-6.6543322
2310850439.8827,-42.283306,-30.135317
2312805474.0958,-48.782036,-18.539745
2314760508.3089,-43.26181,11.389256
2316715542.522,-40.945461,-8.0898905
2318670576.7351,-39.833618,-27.99972
2320625610.9482,-40.420254,-47.635258
2322580645.1613,-42.85458,-65.016327
2324535679.3744,-45.469234,-55.580597
2326490713.5875,-44.539776,-54.210442
2328445747.8006,-43.760986,-42.596107
2330400782.0137,-40.097015,-57.202492
2332355816.2268,-39.617073,-79.093513
2334310850.4399,-39.649261,-98.777206
2336265884.653,-41.655704,-119.42007
2338220918.8661,-43.390427,-115.25476
2340175953.0792,-43.870132,-125.23418
2342130987.2923,-44.533432,-120.06765
2344086021.5054,-44.436012,-118.99525
2346041055.7185,-41.722355,-127.01105
2347996089.9316,-43.40271,-143.20309
2349951124.1447,-41.70364,-134.56798
2351906158.3578,-40.627132,-154.03557
2353861192.5709,-40.141327,-171.81805
2355816226.784,-40.966427,168.90138
2357771260.9971,-42.209202,162.78641
2359726295.2102,-43.784164,152.87877
2361681329.4233,-43.69585,157.99155
2363636363.6364,-43.041958,147.63959
2365591397.8495,-42.219864,136.54736
2367546432.0626,-42.252281,100.87395
2369501466.2757,-49.354504,66.821648
2371456500.4888,-58.3489,-142.69453
2373411534.7019,-47.15593,-173.31271
2375366568.915,-42.483932,164.07465
2377321603.1281,-41.645638,142.06607
2379276637.3412,-40.651852,133.96063
2381231671.5543,-39.472668,114.62641
2383186705.7674,-39.825012,98.134636
2385141739.9804,-40.212383,90.737289
2387096774.1935,-40.601593,80.513374
2389051808.4066,-40.403336,78.638916
2391006842.6197,-39.5979,73.790703
2392961876.8328,-38.32225,61.884472
2394916911.0459,-38.899406,49.989056
2396871945.259,-38.364178,46.801346
2398826979.4721,-37.851761,38.078518
2400782013.6852,-37.343315,32.526501
2402737047.8983,-35.918945,21.637823
2404692082.1114,-34.862785,9.2086897
2406647116.3245,-34.400436,-5.1567888
2408602150.5376,-34.294323,-18.228865
2410557184.7507,-33.790863,-31.040636
2412512218.9638,-33.292309,-48.4641
2414467253.1769,-34.263557,-64.409447
2416422287.39,-35.15517,-74.800804
2418377321.6031,-35.597279,-82.394135
2420332355.8162,-36.229321,-86.026428
2422287390.0293,-35.707439,-90.858887
2424242424.2424,-34.273842,-101.15391
2426197458.4555,-33.960064,-116.40292
2428152492.6686,-34.205208,-132.38112
2430107526.8817,-34.788288,-142.74429
2432062561.0948,-35.349934,-153.71201
2434017595.3079,-35.881805,-162.78595
2435972629.521,-36.103024,-165.47964
2437927663.7341,-35.061447,-173.24059
2439882697.9472,-34.576309,172.7227
2441837732.1603,-34.698395,160.68555
2443792766.3734,-34.219994,145.21353
2445747800.5865,-34.953766,127.25838
2447702834.7996,-36.388218,109.27452
2449657869.0127,-39.28384,108.09072
2451612903.2258,-39.581589,115.49066
2453567937.4389,-37.472679,110.53717
2455522971.652,-37.988548,95.7966
2457478005.8651,-37.669411,93.21743
2459433040.0782,-36.978821,77.29155
2461388074.2913,-38.0294,68.268196
2463343108.5044,-37.660587,62.770599
2465298142.7175,-36.332222,51.282215
2467253176.9306,-35.862988,29.163576
2469208211.1437,-38.146656,6.5301981
2471163245.3568,-40.458263,6.5303211
2473118279.5699,-40.323502,5.4346018
2475073313.783,-41.041744,-8.2748842
2477028347.9961,-40.814133,-15.402437
2478983382.2092,-42.216015,-29.171413
2480938416.4223,-45.934963,-33.724102
2482893450.6354,-44.646076,-15.86322
2484848484.8485,-42.849651,-18.950686
2486803519.0616,-42.106495,-39.708149
2488758553.2747,-43.542904,-38.2738
2490713587.4878,-41.782616,-51.230972
2492668621.7009,-43.065182,-62.968189
2494623655.914,-44.162189,-72.611168
2496578690.1271,-43.58884,-68.241982
2498533724.3402,-42.486622,-89.893875
2500488758.5533,-46.718739,-98.007072
2502443792.7664,-43.835598,-77.670792
2504398826.9795,-41.986462,-105.81767
2506353861.1926,-43.425682,-135.11143
2508308895.4057,-47.077084,-143.46794
2510263929.6188,-50.219482,-159.37703
2512218963.8319,-66.62532,-168.79837
2514173998.045,-55.786053,-45.278873
2516129032.2581,-45.983028,-46.39201
2518084066.4712,-41.508904,-78.508224
2520039100.6843,-40.581165,-107.29041
2521994134.8974,-40.856251,-121.1514
2523949169.1105,-39.948151,-135.34294
2525904203.3236,-42.030331,-149.21191
2527859237.5367,-41.725212,-145.73166
2529814271.7498,-40.810513,-148.36002
2531769305.9629,-39.056252,-152.22562
2533724340.176,-37.317837,-168.43672
2535679374.3891,-36.719086,172.66132
2537634408.6022,-37.383057,156.50424
2539589442.8152,-38.631218,154.30737
2541544477.0283,-37.184948,154.17723
2543499511.2414,-35.857765,145.31004
2545454545.4545,-34.260139,129.48093
2547409579.6676,-34.16795,110.97672
2549364613.8807,-34.216728,97.607552
2551319648.0938,-33.799877,83.681961
2553274682.3069,-34.339165,68.765099
2555229716.52,-35.016758,56.809334
2557184750.7331,-35.426289,49.247684
2559139784.9462,-35.470711,40.127205
2561094819.1593,-35.786819,30.887884
2563049853.3724,-35.255058,24.852633
2565004887.5855,-35.118786,10.50939
2566959921.7986,-35.622929,0.92904031
2568914956.0117,-35.362598,-6.9596572
2570869990.2248,-35.072197,-18.303606
2572825024.4379,-35.191326,-29.324862
2574780058.651,-35.159317,-45.425411
2576735092.8641,-35.931316,-55.636116
2578690127.0772,-36.714077,-64.699982
2580645161.2903,-36.144131,-70.19416
2582600195.5034,-36.489819,-86.701729
2584555229.7165,-37.714897,-95.425415
2586510263.9296,-38.004074,-105.99057
2588465298.1427,-39.398579,-109.57699
2590420332.3558,-39.337643,-112.68452
2592375366.5689,-39.316814,-116.05444
2594330400.782,-38.134846,-125.38741
2596285434.9951,-38.175167,-137.26019
2598240469.2082,-38.223309,-150.72955
2600195503.4213,-38.691883,-163.04379
2602150537.6344,-40.70689,-173.56046
2604105571.8475,-41.356232,-174.20892
2606060606.0606,-41.885242,-172.36742
2608015640.2737,-40.05431,-172.32207
2609970674.4868,-39.150513,173.60345
2611925708.6999,-39.20034,161.57841
2613880742.913,-39.037819,151.14697
2615835777.1261,-39.281536,135.1796
2617790811.3392,-41.555771,131.13959
2619745845.5523,-40.039024,131.45593
2621700879.7654,-39.112263,119.11573
2623655913.9785,-39.375423,108.06426
2625610948.1916,-39.104351,94.158821
2627565982.4047,-40.089787,79.864563
2629521016.6178,-40.42387,66.257843
2631476050.8309,-42.61536,55.851543
2633431085.044,-44.698898,55.91674
2635386119.2571,-44.625889,72.881653
2637341153.4702,-41.867897,63.235653
2639296187.6833,-40.972916,51.967327
2641251221.8964,-40.353706,36.064072
2643206256.1095,-40.578674,18.563528
2645161290.3226,-41.277367,3.3488958
2647116324.5357,-43.107567,-9.1626472
2649071358.7488,-43.475594,-21.864525
2651026392.9619,-46.089596,-32.584824
2652981427.175,-48.555382,-38.359821
2654936461.3881,-54.615681,-26.594906
2656891495.6012,-53.589962,10.74817
2658846529.8143,-47.648457,16.33322
2660801564.0274,-46.843159,-0.24387914
2662756598.2405,-47.110622,-2.6584961
2664711632.4536,-45.444233,-9.6739683
2666666666.6667,-45.562256,-10.860291
2668621700.8798,-45.232368,-1.8981187
2670576735.0929,-40.889549,-8.5550165
2672531769.306,-38.649895,-26.132301
2674486803.5191,-37.944374,-44.35062
2676441837.7322,-37.104721,-63.070515
2678396871.9453,-37.897377,-81.128349
2680351906.1584,-37.589916,-87.767349
2682306940.3715,-37.490189,-108.65193
2684261974.5846,-40.300972,-114.63917
2686217008.7977,-40.140137,-104.0593
2688172043.0108,-37.53759,-109.88594
2690127077.2239,-36.102654,-126.31651
2692082111.437,-35.590286,-145.88844
2694037145.65,-36.653328,-156.45184
2695992179.8631,-36.000751,-163.47704
2697947214.0762,-35.26556,-178.26064
2699902248.2893,-35.507133,167.71965
2701857282.5024,-35.324745,154.21869
2703812316.7155,-35.803814,138.41792
2705767350.9286,-37.264797,128.9845
2707722385.1417,-37.658211,124.66082
2709677419.3548,-36.929787,115.65381
2711632453.5679,-36.894913,100.73788
2713587487.781,-37.388611,83.929321
2715542521.9941,-39.505199,78.150482
2717497556.2072,-39.483166,78.501007
2719452590.4203,-39.758717,65.114899
2721407624.6334,-39.88821,64.252037
2723362658.8465,-39.620293,51.6408
2725317693.0596,-39.882584,48.593853
2727272727.2727,-40.018429,31.594854
2729227761.4858,-41.327824,32.773403
2731182795.6989,-40.76643,29.57543
2733137829.912,-39.970406,27.675936
2735092864.1251,-38.328133,11.384377
2737047898.3382,-38.434875,-3.6998456
2739002932.5513,-38.657639,-24.227833
2740957966.7644,-40.530212,-36.34745
2742913000.9775,-42.984127,-46.5942
2744868035.1906,-44.923714,-24.054808
2746823069.4037,-41.726097,-30.485737
2748778103.6168,-42.281765,-32.061459
2750733137.8299,-41.443119,-34.730865
2752688172.043,-39.187954,-42.406998
2754643206.2561,-38.0229,-57.065762
2756598240.4692,-37.669086,-73.498741
2758553274.6823,-37.60247,-86.542488
2760508308.8954,-36.839687,-98.636711
2762463343.1085,-37.556461,-113.7114
2764418377.3216,-38.068794,-122.94975
2766373411.5347,-36.708961,-136.20128
2768328445.7478,-37.413719,-152.33125
2770283479.9609,-37.565784,-167.24014
2772238514.174,-37.735401,173.9594
2774193548.3871,-39.141621,155.53943
2776148582.6002,-40.896992,133.38979
2778103616.8133,-48.419128,128.86784
2780058651.0264,-45.696316,153.40955
2782013685.2395,-46.223335,135.10605
2783968719.4526,-48.72226,136.94023
2785923753.6657,-48.69865,141.89914
2787878787.8788,-45.834637,143.94057
2789833822.0919,-48.034416,120.34269
2791788856.305,-48.799809,116.38186
2793743890.5181,-51.651123,136.05762
2795698924.7312,-48.496391,137.54514
2797653958.9443,-48.888748,131.81546
2799608993.1574,-47.261204,126.43517
2801564027.3705,-47.366211,133.36609
2803519061.5836,-45.539852,127.9666
2805474095.7967,-43.173065,112.77217
2807429130.0098,-43.444641,102.71708
2809384164.2229,-43.381729,91.884941
2811339198.436,-42.297585,99.052116
2813294232.6491,-40.077339,81.403786
2815249266.8622,-39.620342,64.213692
2817204301.0753,-39.722496,49.093403
2819159335.2884,-40.658165,36.551693
2821114369.5015,-40.972889,33.504883
2823069403.7146,-40.080101,25.831894
2825024437.9277,-39.940254,16.670612
2826979472.1408,-39.554829,11.324872
2828934506.3539,-37.372604,-2.0132134
2830889540.567,-37.660244,-23.031925
2832844574.7801,-38.647381,-40.066811
2834799608.9932,-40.078671,-44.253216
2836754643.2063,-39.258499,-49.953953
2838709677.4194,-39.624649,-62.284798
2840664711.6325,-39.399635,-69.972038
2842619745.8456,-39.101696,-87.157692
2844574780.0587,-40.679771,-104.97495
2846529814.2717,-42.878349,-100.00113
2848484848.4848,-42.613281,-103.14307
2850439882.6979,-42.840752,-108.53532
2852394916.911,-42.195671,-97.647583
2854349951.1241,-40.103054,-111.43694
2856304985.3372,-39.129036,-119.82475
2858260019.5503,-37.602768,-137.58229
2860215053.7634,-38.232769,-157.02655
2862170087.9765,-39.026936,-171.71245
2864125122.1896,-40.002686,179.6481
2866080156.4027,-41.218178,169.60158
2868035190.6158,-41.911442,171.11545
2869990224.8289,-41.811764,170.46234
2871945259.042,-40.007786,166.17711
2873900293.2551,-39.420124,155.40536
2875855327.4682,-38.381081,142.99716
2877810361.6813,-38.205368,128.34157
2879765395.8944,-38.131496,117.92551
2881720430.1075,-38.363335,104.13565
2883675464.3206,-38.423416,93.601036
2885630498.5337,-38.212685,85.894058
2887585532.7468,-37.105965,73.271866
2889540566.9599,-38.125126,52.203861
2891495601.173,-38.312874,45.599213
2893450635.3861,-38.092079,23.69632
2895405669.5992,-39.712326,6.5775628
2897360703.8123,-41.085014,-1.4918349
2899315738.0254,-43.127098,-7.1059895
2901270772.2385,-43.463242,-3.7862825
2903225806.4516,-41.41869,-15.01739
2905180840.6647,-43.072369,-37.202614
2907135874.8778,-44.184189,-45.623573
2909090909.0909,-45.315804,-56.781593
2911045943.304,-45.69231,-59.974613
2913000977.5171,-48.145889,-83.482796
2914956011.7302,-51.883389,-71.59874
2916911045.9433,-50.528812,-71.896759
2918866080.1564,-50.635086,-104.73042
2920821114.3695,-59.474644,169.31009
2922776148.5826,-50.702297,19.740374
2924731182.7957,-48.975861,-31.226561
2926686217.0088,-54.702808,-36.429539
2928641251.2219,-47.722538,-10.998018
2930596285.435,-43.761208,-38.06884
2932551319.6481,-43.928112,-59.548096
2934506353.8612,-44.731388,-62.941956
2936461388.0743,-42.614536,-69.310638
2938416422.2874,-40.983829,-83.756958
2940371456.5005,-39.612141,-97.811394
2942326490.7136,-39.310825,-120.27018
2944281524.9267,-39.657566,-132.41191
2946236559.1398,-39.303848,-147.17531
2948191593.3529,-40.138718,-161.41913
2950146627.566,-40.483582,-175.88272
2952101661.7791,-41.319355,174.94273
2954056695.9922,-42.379101,168.20441
2956011730.2053,-42.898239,169.21225
2957966764.4184,-41.998264,160.46075
2959921798.6315,-41.743248,158.08437
2961876832.8446,-39.677975,146.36281
2963831867.0577,-40.466942,124.40142
2965786901.2708,-42.478897,121.93423
2967741935.4839,-40.640461,119.63997
2969696969.697,-40.439362,105.56031
2971652003.9101,-39.590866,95.095642
2973607038.1232,-39.631012,75.803062
2975562072.3363,-41.943581,66.44278
2977517106.5494,-41.537407,62.648502
2979472140.7625,-42.194241,56.16317
2981427174.9756,-41.739105,56.752766
2983382209.1887,-40.507713,48.006317
2985337243.4018,-40.162498,34.327129
2987292277.6149,-40.301243,23.901344
2989247311.828,-40.640991,12.713468
2991202346.0411,-41.105354,12.985294
2993157380.2542,-39.479191,6.7018638
2995112414.4673,-39.012592,-7.9286604
2997067448.6804,-38.949684,-18.238731
2999022482.8935,-38.074364,-28.352743
3000977517.1065,-37.542675,-41.972786
3002932551.3196,-37.238777,-56.924465
3004887585.5327,-37.234921,-73.413994
3006842619.7458,-38.349194,-88.613831
3008797653.9589,-38.819538,-95.517075
3010752688.172,-39.515045,-103.19508
3012707722.3851,-39.336178,-108.80948
3014662756.5982,-38.186333,-115.60598
3016617790.8113,-37.667706,-129.08083
3018572825.0244,-36.587486,-146.28017
3020527859.2375,-36.881039,-167.49467
3022482893.4506,-38.259167,175.40657
3024437927.6637,-39.00132,168.01106
3026392961.8768,-39.090416,158.3815
3028347996.0899,-38.001553,144.74626
3030303030.303,-38.337372,117.12422
3032258064.5161,-39.999458,90.576401
3034213098.7292,-43.648998,71.312447
3036168132.9423,-49.384892,66.649933
3038123167.1554,-48.570454,94.915291
