!CSV A.01.01
!Keysight Technologies,P5008B,MY61100146,A.17.20.08
!Date: Saturday, November 18, 2023 14:07:53
!Source: Standard

BEGIN CH1_DATA
Freq(Hz),S12(DB),S12(DEG)
2000000000,-35.170593,-63.630692
2001955034.2131,-35.276833,-70.981026
2003910068.4262,-33.902485,-80.976471
2005865102.6393,-32.771679,-98.698357
2007820136.8524,-33.37188,-116.90112
2009775171.0655,-33.668972,-129.07147
2011730205.2786,-33.987019,-142.87144
2013685239.4917,-34.706913,-155.11987
2015640273.7048,-35.264732,-164.94951
2017595307.9179,-36.052357,-169.80382
2019550342.131,-36.159065,-178.14764
2021505376.3441,-35.313377,178.59824
2023460410.5572,-34.766468,163.20616
2025415444.7703,-34.42514,154.12878
2027370478.9834,-33.731899,136.86284
2029325513.1965,-34.730026,118.63998
2031280547.4096,-34.642536,108.32928
2033235581.6227,-35.899055,92.738197
2035190615.8358,-35.799889,85.958359
2037145650.0489,-36.590778,66.414764
2039100684.262,-38.184963,62.35659
2041055718.4751,-37.506588,59.296314
2043010752.6882,-36.343624,40.426067
2044965786.9013,-37.207966,21.35014
2046920821.1144,-37.557846,0.41437298
2048875855.3275,-38.533077,-14.667768
2050830889.5406,-39.950787,-44.411526
2052785923.7537,-42.434216,-75.02298
2054740957.9668,-48.549355,-127.69
2056695992.1799,-60.723484,120.70564
2058651026.393,-52.413837,43.695309
2060606060.6061,-54.27684,-0.38336322
2062561094.8192,-55.597912,52.001114
2064516129.0323,-49.655956,60.457119
2066471163.2454,-43.5252,31.344841
2068426197.4585,-41.502125,-2.2085102
2070381231.6716,-43.094273,-37.196232
2072336265.8847,-44.489326,-43.5709
2074291300.0978,-44.061619,-61.10318
2076246334.3109,-48.913029,-80.124352
2078201368.5239,-45.779884,-66.485023
2080156402.737,-46.92749,-110.87084
2082111436.9501,-49.079075,-123.98473
2084066471.1632,-49.687893,179.14626
2086021505.3763,-49.165451,80.889954
2087976539.5894,-44.056526,20.924574
2089931573.8025,-42.771027,-34.698616
2091886608.0156,-44.564953,-56.063141
2093841642.2287,-45.039948,-74.603851
2095796676.4418,-49.25631,-74.57933
2097751710.6549,-46.364021,-47.771824
2099706744.868,-42.17799,-63.583836
2101661779.0811,-41.231133,-79.474297
2103616813.2942,-40.573307,-92.107956
2105571847.5073,-38.324574,-107.34011
2107526881.7204,-38.884575,-132.047
2109481915.9335,-40.653538,-124.16874
2111436950.1466,-37.339512,-136.50119
2113391984.3597,-37.37521,-150.79846
2115347018.5728,-36.55489,-154.23903
2117302052.7859,-34.928173,-169.56381
2119257086.999,-33.699261,172.9157
2121212121.2121,-33.468781,153.86203
2123167155.4252,-32.959286,136.36496
2125122189.6383,-33.032566,114.50083
2127077223.8514,-34.939045,95.420692
2129032258.0645,-36.854828,90.80825
2130987292.2776,-36.974915,81.837952
2132942326.4907,-37.471252,87.96595
2134897360.7038,-35.801113,72.970284
2136852394.9169,-35.206524,59.814548
2138807429.13,-35.570644,45.037632
2140762463.3431,-36.004292,27.446264
2142717497.5562,-37.813046,15.927183
2144672531.7693,-38.415051,12.886731
2146627565.9824,-39.477905,9.6771946
2148582600.1955,-37.695545,4.6874423
2150537634.4086,-39.91861,-2.3847797
2152492668.6217,-37.313637,-1.7960401
2154447702.8348,-36.42733,-23.537979
2156402737.0479,-37.632595,-32.894592
2158357771.261,-37.663559,-39.03278
2160312805.4741,-37.307262,-49.269512
2162267839.6872,-37.349026,-54.466854
2164222873.9003,-36.694729,-64.990944
2166177908.1134,-36.434814,-76.526558
2168132942.3265,-35.341984,-83.68647
2170087976.5396,-34.43232,-101.82836
2172043010.7527,-34.689133,-124.77934
2173998044.9658,-36.139065,-136.51332
2175953079.1789,-36.876778,-149.14326
2177908113.392,-38.452606,-147.08826
2179863147.6051,-36.136791,-155.31595
2181818181.8182,-35.305405,-175.63574
2183773216.0313,-35.813522,159.98439
2185728250.2444,-36.242752,142.6701
2187683284.4575,-37.67355,116.18238
2189638318.6706,-41.572449,90.342606
2191593352.8837,-46.570042,90.712082
2193548387.0968,-49.992458,90.220222
2195503421.3099,-51.94125,83.593147
2197458455.523,-61.279171,-126.47196
2199413489.7361,-46.521313,172.66252
2201368523.9492,-46.803379,134.85701
2203323558.1623,-47.442207,137.84184
2205278592.3754,-44.892559,132.79634
2207233626.5885,-47.020042,118.07008
2209188660.8016,-44.448017,126.76696
2211143695.0147,-42.810448,112.81352
2213098729.2278,-42.527683,88.79763
2215053763.4409,-44.481033,76.998352
2217008797.654,-45.135181,93.289291
2218963831.8671,-43.773449,84.616447
2220918866.0802,-42.591167,81.278053
2222873900.2933,-41.078941,70.331772
2224828934.5064,-39.274792,50.366863
2226783968.7195,-41.12701,28.106663
2228739002.9326,-43.055954,28.740778
2230694037.1456,-41.584167,42.511738
2232649071.3587,-37.950405,20.941025
2234604105.5718,-38.631931,-2.1320398
2236559139.7849,-38.839451,-17.856501
2238514173.998,-40.490524,-32.858429
2240469208.2111,-41.182823,-36.205555
2242424242.4242,-41.42289,-51.320297
2244379276.6373,-43.840664,-57.553047
2246334310.8504,-44.090786,-63.287338
2248289345.0635,-48.090874,-61.684479
2250244379.2766,-48.153561,-20.700703
2252199413.4897,-41.383686,-20.130976
2254154447.7028,-37.91209,-39.742741
2256109481.9159,-36.703114,-65.562408
2258064516.129,-36.932507,-86.953339
2260019550.3421,-38.600094,-95.696701
2261974584.5552,-37.856632,-98.218559
2263929618.7683,-36.74258,-104.93543
2265884652.9814,-34.950394,-118.64226
2267839687.1945,-35.32777,-138.65544
2269794721.4076,-35.972935,-150.41924
2271749755.6207,-35.996433,-154.23619
2273704789.8338,-34.840637,-163.1488
2275659824.0469,-34.020737,-178.59157
2277614858.26,-33.5686,166.27809
2279569892.4731,-34.276356,150.70212
2281524926.6862,-34.070915,141.07796
2283479960.8993,-33.75219,127.45983
2285434995.1124,-34.151665,110.42822
2287390029.3255,-35.310051,99.528877
2289345063.5386,-34.808075,89.858238
2291300097.7517,-35.24971,76.116043
2293255131.9648,-35.708824,58.757965
2295210166.1779,-37.643509,53.178307
2297165200.391,-36.81831,49.608124
2299120234.6041,-37.385857,31.493387
2301075268.8172,-37.937164,22.826889
2303030303.0303,-38.259144,16.268108
2304985337.2434,-38.792309,0.21115921
2306940371.4565,-39.850681,-6.9317517
2308895405.6696,-39.993561,-19.608873
2310850439.8827,-41.791706,-40.202431
2312805474.0958,-47.618198,-45.153412
2314760508.3089,-45.414326,-0.83727062
2316715542.522,-42.032864,-15.137178
2318670576.7351,-41.114109,-34.232529
2320625610.9482,-42.074951,-54.086426
2322580645.1613,-44.480789,-57.659653
2324535679.3744,-44.456882,-51.460899
2326490713.5875,-44.248013,-52.476406
2328445747.8006,-42.42094,-50.33073
2330400782.0137,-40.165436,-61.866707
2332355816.2268,-38.966721,-84.358505
2334310850.4399,-39.199158,-105.14355
2336265884.653,-40.742195,-132.70477
2338220918.8661,-44.434814,-128.30389
2340175953.0792,-44.327873,-133.9082
2342130987.2923,-44.312603,-134.06361
2344086021.5054,-45.286083,-137.33861
2346041055.7185,-43.843513,-146.56203
2347996089.9316,-46.537556,-165.187
2349951124.1447,-46.000004,-140.76137
2351906158.3578,-44.634605,-155.49254
2353861192.5709,-43.515751,-160.54245
2355816226.784,-42.856754,177.32115
2357771260.9971,-44.313072,165.10709
2359726295.2102,-46.734612,163.89368
2361681329.4233,-46.748997,170.13889
2363636363.6364,-44.610569,160.7368
2365591397.8495,-44.591915,146.77641
2367546432.0626,-46.074429,115.26768
2369501466.2757,-56.836185,110.54373
2371456500.4888,-49.87299,-156.85631
2373411534.7019,-45.308395,-173.14876
2375366568.915,-40.773262,175.25539
2377321603.1281,-39.779007,151.81564
2379276637.3412,-38.649345,138.77562
2381231671.5543,-38.048706,118.09013
2383186705.7674,-38.381832,104.3071
2385141739.9804,-38.826275,95.840538
2387096774.1935,-38.513683,87.836662
2389051808.4066,-38.135651,80.680511
2391006842.6197,-37.029881,70.134483
2392961876.8328,-36.65176,55.041126
2394916911.0459,-37.247372,41.808296
2396871945.259,-37.722511,37.590027
2398826979.4721,-37.272873,34.509697
2400782013.6852,-35.946335,27.132298
2402737047.8983,-35.058926,14.545727
2404692082.1114,-34.403999,2.1514878
2406647116.3245,-33.651348,-11.419706
2408602150.5376,-33.752129,-25.738705
2410557184.7507,-33.44278,-40.123264
2412512218.9638,-33.270729,-54.32777
2414467253.1769,-33.877678,-72.262123
2416422287.39,-35.095875,-83.849739
2418377321.6031,-36.285236,-92.683853
2420332355.8162,-36.833973,-91.657524
2422287390.0293,-36.12674,-97.270821
2424242424.2424,-35.124012,-105.97936
2426197458.4555,-34.579498,-119.28787
2428152492.6686,-34.644108,-134.70822
2430107526.8817,-35.360752,-146.57451
2432062561.0948,-36.195179,-156.70682
2434017595.3079,-36.54348,-160.01216
2435972629.521,-35.874489,-165.44339
2437927663.7341,-35.325668,-179.30695
2439882697.9472,-35.495228,171.17647
2441837732.1603,-35.203487,159.42488
2443792766.3734,-34.796864,147.06268
2445747800.5865,-35.399471,128.5239
2447702834.7996,-36.422771,114.85284
2449657869.0127,-38.43084,109.08469
2451612903.2258,-39.075542,109.69013
2453567937.4389,-37.535774,106.96774
2455522971.652,-37.733295,90.003647
2457478005.8651,-38.207764,83.4478
2459433040.0782,-38.175098,72.28421
2461388074.2913,-38.888565,64.259567
2463343108.5044,-38.609871,59.852573
2465298142.7175,-37.431042,48.984241
2467253176.9306,-37.037704,29.800133
2469208211.1437,-38.667534,7.635922
2471163245.3568,-40.75856,2.7830315
2473118279.5699,-41.101521,-3.443547
2475073313.783,-43.625511,-17.002232
2477028347.9961,-42.746662,-14.017601
2478983382.2092,-44.395943,-33.797031
2480938416.4223,-50.181057,-22.790676
2482893450.6354,-49.152008,2.1580155
2484848484.8485,-43.488445,6.6616879
2486803519.0616,-42.198315,-17.226557
2488758553.2747,-42.17569,-28.305492
2490713587.4878,-43.619293,-47.596283
2492668621.7009,-43.949886,-33.775169
2494623655.914,-42.06171,-43.777325
2496578690.1271,-41.341568,-57.691643
2498533724.3402,-40.971199,-76.360611
2500488758.5533,-43.773537,-84.990532
2502443792.7664,-41.657009,-77.38118
2504398826.9795,-40.604969,-100.40281
2506353861.1926,-41.655041,-125.13908
2508308895.4057,-43.741734,-134.65242
2510263929.6188,-47.488861,-151.03703
2512218963.8319,-52.115299,-139.55237
2514173998.045,-56.244751,-96.588493
2516129032.2581,-47.119633,-63.331585
2518084066.4712,-41.926552,-86.352058
2520039100.6843,-40.656464,-112.2364
2521994134.8974,-40.068188,-122.04432
2523949169.1105,-39.122375,-141.0092
2525904203.3236,-40.324448,-156.46875
2527859237.5367,-40.589249,-164.22731
2529814271.7498,-41.377258,-164.17746
2531769305.9629,-40.006454,-163.50119
2533724340.176,-37.932549,-175.54634
2535679374.3891,-37.328716,167.03323
2537634408.6022,-37.806805,150.12564
2539589442.8152,-38.71838,150.17441
2541544477.0283,-37.72488,140.74663
2543499511.2414,-37.679741,139.02745
2545454545.4545,-35.78336,128.65135
2547409579.6676,-35.138489,113.23194
2549364613.8807,-34.72356,99.751526
2551319648.0938,-34.046021,84.514069
2553274682.3069,-34.856499,69.797081
2555229716.52,-34.933556,57.048321
2557184750.7331,-35.622562,48.119358
2559139784.9462,-35.679893,40.740894
2561094819.1593,-35.411949,29.392103
2563049853.3724,-35.401772,21.558666
2565004887.5855,-35.201359,5.0697136
2566959921.7986,-36.391998,-4.1874466
2568914956.0117,-36.090115,-9.0206051
2570869990.2248,-35.732811,-19.265596
2572825024.4379,-35.297485,-30.025236
2574780058.651,-35.485394,-49.368408
2576735092.8641,-37.231853,-60.555111
2578690127.0772,-38.331238,-63.178566
2580645161.2903,-37.235954,-63.318779
2582600195.5034,-36.623047,-82.135941
2584555229.7165,-37.827408,-91.565506
2586510263.9296,-37.883278,-103.33027
2588465298.1427,-38.973484,-110.27603
2590420332.3558,-38.989574,-116.71603
2592375366.5689,-39.764538,-121.31821
2594330400.782,-39.339863,-131.82327
2596285434.9951,-39.510368,-137.07814
2598240469.2082,-39.359768,-152.12383
2600195503.4213,-40.695759,-158.25323
2602150537.6344,-42.609207,-165.92323
2604105571.8475,-41.627491,-157.55833
2606060606.0606,-41.200756,-162.16133
2608015640.2737,-39.807816,-166.61397
2609970674.4868,-38.610798,178.38431
2611925708.6999,-39.097328,162.65276
2613880742.913,-39.250526,154.09869
2615835777.1261,-39.63242,142.44582
2617790811.3392,-40.916321,138.34735
2619745845.5523,-39.526886,131.27817
2621700879.7654,-39.700241,120.63472
2623655913.9785,-40.025742,114.6226
2625610948.1916,-38.970154,105.04839
2627565982.4047,-39.274792,90.555611
2629521016.6178,-39.344288,78.05172
2631476050.8309,-40.094765,67.967537
2633431085.044,-41.642521,51.184479
2635386119.2571,-42.338524,64.856865
2637341153.4702,-41.044052,51.952751
2639296187.6833,-41.308361,42.883102
2641251221.8964,-41.188309,33.429417
2643206256.1095,-40.56813,27.576731
2645161290.3226,-40.105736,7.8395181
2647116324.5357,-42.097355,-9.4937105
2649071358.7488,-42.585449,-18.747952
2651026392.9619,-44.423645,-31.35952
2652981427.175,-46.701527,-40.502449
2654936461.3881,-51.210247,-40.069889
2656891495.6012,-51.145973,-8.4756021
2658846529.8143,-48.179478,-4.2364407
2660801564.0274,-47.012993,-19.989939
2662756598.2405,-49.295055,-17.73711
2664711632.4536,-48.370312,-27.560501
2666666666.6667,-48.961189,-11.739883
2668621700.8798,-46.847481,6.623889
2670576735.0929,-41.796341,-2.9320025
2672531769.306,-39.442043,-21.185371
2674486803.5191,-38.051952,-40.379993
2676441837.7322,-37.537384,-60.651745
2678396871.9453,-38.508442,-79.784096
2680351906.1584,-38.385075,-80.422371
2682306940.3715,-37.712585,-101.13416
2684261974.5846,-39.526073,-107.94944
2686217008.7977,-39.425751,-103.20582
2688172043.0108,-37.310341,-113.52915
2690127077.2239,-36.286888,-125.43843
2692082111.437,-35.880688,-142.30902
2694037145.65,-36.101498,-152.70401
2695992179.8631,-35.644585,-163.21286
2697947214.0762,-34.696175,-177.25105
2699902248.2893,-35.246933,164.68338
2701857282.5024,-35.691193,154.67511
2703812316.7155,-35.880985,141.64308
2705767350.9286,-36.871117,132.54767
2707722385.1417,-36.660809,126.44711
2709677419.3548,-36.490448,116.2958
2711632453.5679,-36.074795,101.06801
2713587487.781,-36.640007,83.775414
2715542521.9941,-38.404118,75.872955
2717497556.2072,-38.760139,70.977013
2719452590.4203,-39.246365,63.605843
2721407624.6334,-39.376141,55.242729
2723362658.8465,-40.052383,47.956089
2725317693.0596,-39.680683,45.348324
2727272727.2727,-39.549122,27.336931
2729227761.4858,-41.574989,26.483936
2731182795.6989,-40.618229,25.655552
2733137829.912,-39.899109,18.872942
2735092864.1251,-38.94635,6.5123534
2737047898.3382,-38.746159,-4.4249635
2739002932.5513,-38.066772,-21.379366
2740957966.7644,-38.845051,-49.206345
2742913000.9775,-43.158657,-67.530632
2744868035.1906,-48.284428,-43.163723
2746823069.4037,-45.127197,-27.011766
2748778103.6168,-44.331364,-26.109322
2750733137.8299,-42.578281,-28.450972
2752688172.043,-39.337166,-34.9617
2754643206.2561,-38.3176,-54.207916
2756598240.4692,-37.853149,-68.036446
2758553274.6823,-36.834698,-83.765396
2760508308.8954,-36.636806,-103.10573
2762463343.1085,-37.583042,-115.98746
2764418377.3216,-37.794075,-130.74835
2766373411.5347,-38.119717,-138.86623
2768328445.7478,-37.72052,-152.23459
2770283479.9609,-37.734188,-169.7964
2772238514.174,-38.361229,165.10991
2774193548.3871,-40.947338,147.64952
2776148582.6002,-43.744732,129.92758
2778103616.8133,-51.045025,143.81621
2780058651.0264,-46.546169,168.541
2782013685.2395,-46.378555,145.57043
2783968719.4526,-48.482803,144.76709
2785923753.6657,-48.223267,146.79758
2787878787.8788,-47.195251,147.83899
2789833822.0919,-48.152657,137.18228
2791788856.305,-46.689938,125.57391
2793743890.5181,-50.586468,121.43392
2795698924.7312,-49.959564,135.99603
2797653958.9443,-49.106907,142.23848
2799608993.1574,-48.564045,140.98885
2801564027.3705,-45.619881,142.00575
2803519061.5836,-44.604622,129.27139
2805474095.7967,-42.989925,120.67927
2807429130.0098,-42.441196,106.42557
2809384164.2229,-42.387695,98.284081
2811339198.436,-41.417587,97.262001
2813294232.6491,-39.574165,82.847961
2815249266.8622,-39.302948,67.270164
2817204301.0753,-39.081753,54.212589
2819159335.2884,-39.414703,42.816166
2821114369.5015,-38.52224,35.713371
2823069403.7146,-38.541656,20.239071
2825024437.9277,-38.509731,8.8555622
2826979472.1408,-38.750797,-0.59889722
2828934506.3539,-38.166805,-9.2393284
2830889540.567,-37.946491,-24.282991
2832844574.7801,-38.547291,-40.409496
2834799608.9932,-39.453487,-45.731258
2836754643.2063,-39.009876,-54.317303
2838709677.4194,-39.298981,-68.467606
2840664711.6325,-39.350388,-73.541786
2842619745.8456,-39.362877,-91.11985
2844574780.0587,-40.955456,-105.33553
2846529814.2717,-43.405834,-101.76696
2848484848.4848,-42.360092,-102.11784
2850439882.6979,-42.139614,-105.65194
2852394916.911,-41.743217,-104.90504
2854349951.1241,-40.006451,-113.70506
2856304985.3372,-38.899147,-122.08163
2858260019.5503,-37.083199,-143.59105
2860215053.7634,-38.746273,-164.7989
2862170087.9765,-39.277336,-173.56181
2864125122.1896,-40.171444,178.07394
2866080156.4027,-40.591038,165.45319
2868035190.6158,-41.870842,158.44693
2869990224.8289,-42.483189,165.1916
2871945259.042,-41.009319,163.81477
2873900293.2551,-39.770866,149.42236
2875855327.4682,-39.756973,136.91154
2877810361.6813,-39.504684,127.22352
2879765395.8944,-39.41251,118.79456
2881720430.1075,-39.1665,108.26538
2883675464.3206,-38.991135,98.07357
2885630498.5337,-37.834671,85.491257
2887585532.7468,-38.200863,67.677528
2889540566.9599,-38.858276,52.486458
2891495601.173,-39.915565,45.013245
2893450635.3861,-39.421051,29.283672
2895405669.5992,-40.94416,13.877295
2897360703.8123,-41.523785,5.3267336
2899315738.0254,-45.312885,-5.1660547
2901270772.2385,-44.132408,14.993259
2903225806.4516,-41.125267,0.79973733
2905180840.6647,-41.810493,-23.668112
2907135874.8778,-43.471985,-34.225758
2909090909.0909,-43.228588,-45.364494
2911045943.304,-45.21109,-70.002502
2913000977.5171,-49.167671,-67.822136
2914956011.7302,-49.329178,-57.357109
2916911045.9433,-48.020828,-68.17524
2918866080.1564,-50.796757,-95.488197
2920821114.3695,-61.003597,-118.8049
2922776148.5826,-52.503193,-8.4811831
2924731182.7957,-47.701286,-43.906097
2926686217.0088,-53.141483,-61.227566
2928641251.2219,-47.867363,-25.070389
2930596285.435,-44.416431,-44.607433
2932551319.6481,-43.18811,-69.941521
2934506353.8612,-44.003082,-85.03537
2936461388.0743,-44.368526,-83.854317
2938416422.2874,-42.690834,-95.597778
2940371456.5005,-42.325699,-100.59008
2942326490.7136,-40.508041,-117.45439
2944281524.9267,-40.463406,-131.44989
2946236559.1398,-39.758022,-145.98564
2948191593.3529,-40.312386,-165.36795
2950146627.566,-41.44183,-177.56483
2952101661.7791,-42.033894,177.11841
2954056695.9922,-42.890728,170.03043
2956011730.2053,-42.307594,172.25172
2957966764.4184,-41.617302,155.51727
2959921798.6315,-42.127361,151.02347
2961876832.8446,-40.736691,140.69537
2963831867.0577,-41.709499,123.35607
2965786901.2708,-42.957462,121.28725
2967741935.4839,-41.441437,118.82251
2969696969.697,-41.335621,105.19035
2971652003.9101,-40.186207,98.925896
2973607038.1232,-39.812664,77.03582
2975562072.3363,-41.795734,61.467693
2977517106.5494,-42.345455,61.207687
2979472140.7625,-42.811485,52.495125
2981427174.9756,-44.043003,54.531662
2983382209.1887,-41.794079,56.438614
2985337243.4018,-40.604259,44.425709
2987292277.6149,-39.671555,28.94166
2989247311.828,-40.756672,9.5246058
2991202346.0411,-41.379303,11.408824
2993157380.2542,-40.001308,4.49719
2995112414.4673,-40.201908,-5.7428269
2997067448.6804,-39.3699,-14.523282
2999022482.8935,-38.731319,-25.853022
3000977517.1065,-37.924438,-37.061836
3002932551.3196,-37.505184,-53.028893
3004887585.5327,-37.411591,-71.625191
3006842619.7458,-38.680553,-87.876526
3008797653.9589,-40.119354,-96.283531
3010752688.172,-40.488285,-94.885452
3012707722.3851,-39.574097,-101.4746
3014662756.5982,-38.334145,-112.05103
3016617790.8113,-38.334438,-126.37809
3018572825.0244,-37.614655,-140.44092
3020527859.2375,-37.67873,-157.93234
3022482893.4506,-38.732479,-174.69583
3024437927.6637,-39.127071,179.5692
3026392961.8768,-38.99234,168.94263
3028347996.0899,-37.791992,153.16716
3030303030.303,-37.860123,125.14626
3032258064.5161,-40.058445,97.325363
3034213098.7292,-44.597118,88.046051
3036168132.9423,-46.927937,87.154457
3038123167.1554,-47.446407,100.70591
3040078201.3685,-45.465702,79.329536
