!CSV A.01.01
!Keysight Technologies,P5008B,MY61100146,A.17.20.08
!Date: Saturday, November 18, 2023 14:08:32
!Source: Standard

BEGIN CH1_DATA
Freq(Hz),S12(DB),S12(DEG)
2000000000,-35.144131,-61.352947
2001955034.2131,-34.983383,-70.79612
2003910068.4262,-33.712242,-82.470306
2005865102.6393,-32.973633,-99.580597
2007820136.8524,-33.487415,-116.75374
2009775171.0655,-33.861694,-129.06456
2011730205.2786,-34.168373,-141.5549
2013685239.4917,-34.760773,-153.93503
2015640273.7048,-35.310303,-163.45001
2017595307.9179,-35.846004,-167.76256
2019550342.131,-35.926865,-177.605
2021505376.3441,-35.065811,179.51671
2023460410.5572,-34.654644,162.65077
2025415444.7703,-34.308956,153.76912
2027370478.9834,-33.790905,136.56703
2029325513.1965,-34.492313,119.718
2031280547.4096,-34.526207,106.55338
2033235581.6227,-36.180878,93.403442
2035190615.8358,-35.398716,86.742813
2037145650.0489,-36.254936,64.465729
2039100684.262,-38.301537,60.237038
2041055718.4751,-37.509464,59.654434
2043010752.6882,-36.199486,39.332378
2044965786.9013,-37.067299,18.195108
2046920821.1144,-37.830154,-2.7435708
2048875855.3275,-38.829967,-18.254408
2050830889.5406,-40.471889,-47.101284
2052785923.7537,-43.148827,-80.402763
2054740957.9668,-50.207096,-137.60229
2056695992.1799,-59.789654,116.55704
2058651026.393,-51.863914,52.442513
2060606060.6061,-53.709984,18.429598
2062561094.8192,-52.40966,47.553493
2064516129.0323,-48.00864,50.52623
2066471163.2454,-43.070099,27.048367
2068426197.4585,-41.31591,-3.4058552
2070381231.6716,-42.436508,-34.953449
2072336265.8847,-43.629292,-47.449524
2074291300.0978,-43.971325,-63.23687
2076246334.3109,-48.370804,-74.141388
2078201368.5239,-44.848114,-66.814919
2080156402.737,-45.382748,-104.45847
2082111436.9501,-46.870186,-125.08202
2084066471.1632,-46.343906,-172.69745
2086021505.3763,-48.040291,98.955254
2087976539.5894,-43.887932,32.165005
2089931573.8025,-43.450718,-30.632753
2091886608.0156,-44.792542,-49.693249
2093841642.2287,-44.56028,-73.276009
2095796676.4418,-50.141918,-78.263794
2097751710.6549,-47.036076,-45.175983
2099706744.868,-42.164627,-60.834591
2101661779.0811,-41.497295,-79.0028
2103616813.2942,-40.81638,-88.13974
2105571847.5073,-38.21814,-107.54395
2107526881.7204,-39.387352,-133.21393
2109481915.9335,-41.240372,-120.11353
2111436950.1466,-37.582317,-133.5806
2113391984.3597,-37.559055,-147.91028
2115347018.5728,-36.469204,-149.01018
2117302052.7859,-34.593372,-166.40546
2119257086.999,-33.526752,174.49762
2121212121.2121,-33.267052,155.0928
2123167155.4252,-32.761063,137.11995
2125122189.6383,-33.039921,114.50615
2127077223.8514,-34.887348,96.585518
2129032258.0645,-36.55555,91.991562
2130987292.2776,-36.749001,81.560959
2132942326.4907,-37.655201,87.404465
2134897360.7038,-35.702625,73.723373
2136852394.9169,-35.283165,58.783695
2138807429.13,-35.684055,46.302483
2140762463.3431,-35.844105,27.442955
2142717497.5562,-38.354187,14.590765
2144672531.7693,-38.611076,15.049051
2146627565.9824,-39.769989,10.983808
2148582600.1955,-37.99556,9.2299423
2150537634.4086,-39.462627,3.8432932
2152492668.6217,-36.914215,-0.80126178
2154447702.8348,-36.165577,-21.523804
2156402737.0479,-37.329102,-30.971048
2158357771.261,-37.217834,-37.573017
2160312805.4741,-36.778618,-47.431007
2162267839.6872,-36.902714,-55.616116
2164222873.9003,-36.291584,-64.667099
2166177908.1134,-35.896172,-77.793625
2168132942.3265,-35.08699,-85.454018
2170087976.5396,-34.287998,-103.42175
2172043010.7527,-34.671238,-125.57607
2173998044.9658,-36.077595,-137.10201
2175953079.1789,-36.645088,-148.39119
2177908113.392,-38.214993,-149.16548
2179863147.6051,-36.140694,-156.22179
2181818181.8182,-35.331154,-175.76588
2183773216.0313,-35.757702,160.38551
2185728250.2444,-36.114601,142.31332
2187683284.4575,-37.85997,116.02049
2189638318.6706,-41.919621,93.507805
2191593352.8837,-46.361778,99.733032
2193548387.0968,-48.447247,101.48663
2195503421.3099,-48.69775,86.427284
2197458455.523,-65.789497,178.80833
2199413489.7361,-46.695911,157.13818
2201368523.9492,-47.192257,120.37988
2203323558.1623,-48.283905,129.45174
2205278592.3754,-45.981434,121.62731
2207233626.5885,-48.598866,109.19453
2209188660.8016,-46.635754,124.31184
2211143695.0147,-44.669029,114.60153
2213098729.2278,-43.573673,92.456322
2215053763.4409,-45.666061,77.46843
2217008797.654,-46.631329,102.91889
2218963831.8671,-43.91444,90.700409
2220918866.0802,-42.866318,88.454697
2222873900.2933,-41.039276,76.354172
2224828934.5064,-39.079315,55.95937
2226783968.7195,-40.492802,31.899849
2228739002.9326,-42.432804,30.760559
2230694037.1456,-40.825836,39.954414
2232649071.3587,-37.759811,17.177616
2234604105.5718,-38.947769,-5.0800209
2236559139.7849,-39.042591,-16.68434
2238514173.998,-40.191162,-34.484783
2240469208.2111,-41.454121,-39.355713
2242424242.4242,-42.314137,-52.334248
2244379276.6373,-44.456974,-54.76363
2246334310.8504,-44.352718,-60.38026
2248289345.0635,-48.687885,-60.574955
2250244379.2766,-48.592064,-18.324245
2252199413.4897,-41.535725,-16.004147
2254154447.7028,-37.765926,-34.623749
2256109481.9159,-36.572502,-63.462696
2258064516.129,-36.791897,-83.463943
2260019550.3421,-38.327839,-91.629051
2261974584.5552,-37.249275,-96.14241
2263929618.7683,-36.309494,-103.42688
2265884652.9814,-34.622173,-118.73187
2267839687.1945,-34.976734,-137.68556
2269794721.4076,-35.609921,-150.24254
2271749755.6207,-35.577038,-154.57858
2273704789.8338,-34.65847,-165.18761
2275659824.0469,-34.175209,-179.27652
2277614858.26,-33.695015,167.33884
2279569892.4731,-34.190742,152.46684
2281524926.6862,-33.846069,143.43559
2283479960.8993,-33.538177,128.46153
2285434995.1124,-33.791344,110.92246
2287390029.3255,-35.084225,100.26302
2289345063.5386,-34.370102,90.507729
2291300097.7517,-34.800949,75.900322
2293255131.9648,-35.25111,58.026161
2295210166.1779,-37.285461,52.416714
2297165200.391,-36.417152,47.006306
2299120234.6041,-37.142109,28.593987
2301075268.8172,-37.874607,21.427837
2303030303.0303,-38.171459,15.916018
2304985337.2434,-38.443832,-0.14537244
2306940371.4565,-39.305809,-9.3001528
2308895405.6696,-39.555222,-22.991833
2310850439.8827,-41.184601,-46.695271
2312805474.0958,-47.612148,-53.041046
2314760508.3089,-46.31134,-8.4265671
2316715542.522,-43.017864,-18.195341
2318670576.7351,-42.046608,-34.349918
2320625610.9482,-42.773621,-52.575428
2322580645.1613,-44.874367,-55.194843
2324535679.3744,-44.76506,-51.666893
2326490713.5875,-44.850235,-50.393303
2328445747.8006,-42.586315,-47.642948
2330400782.0137,-40.149879,-58.894897
2332355816.2268,-38.809155,-82.168404
2334310850.4399,-39.201588,-104.82325
2336265884.653,-40.599735,-129.5472
2338220918.8661,-43.833462,-129.1833
2340175953.0792,-43.704353,-136.00159
2342130987.2923,-44.107136,-138.47878
2344086021.5054,-45.969387,-144.85207
2346041055.7185,-44.687775,-148.26801
2347996089.9316,-47.691895,-166.51331
2349951124.1447,-46.236637,-135.63206
2351906158.3578,-44.976608,-153.22954
2353861192.5709,-43.629784,-159.56709
2355816226.784,-43.103542,179.60841
2357771260.9971,-44.363869,167.0663
2359726295.2102,-46.515038,163.49799
2361681329.4233,-46.337898,175.08896
2363636363.6364,-44.92522,156.77545
2365591397.8495,-44.926342,150.83611
2367546432.0626,-46.352016,118.90966
2369501466.2757,-56.781879,127.45429
2371456500.4888,-49.209057,-157.72142
2373411534.7019,-44.897549,-175.05537
2375366568.915,-40.798679,175.15857
2377321603.1281,-39.590164,150.83302
2379276637.3412,-38.829414,138.22681
2381231671.5543,-37.682919,120.83588
2383186705.7674,-38.020786,103.02269
2385141739.9804,-38.879658,94.806229
2387096774.1935,-38.277287,87.011917
2389051808.4066,-38.270367,80.142876
2391006842.6197,-36.94714,72.240463
2392961876.8328,-36.185814,54.891193
2394916911.0459,-37.046135,40.848698
2396871945.259,-37.322083,36.67197
2398826979.4721,-37.246796,31.623568
2400782013.6852,-36.107796,24.842594
2402737047.8983,-35.194855,13.250745
2404692082.1114,-34.618629,0.99546665
2406647116.3245,-33.814342,-11.623896
2408602150.5376,-33.877792,-25.146101
2410557184.7507,-33.357475,-39.702129
2412512218.9638,-33.128548,-54.852734
2414467253.1769,-33.801365,-73.875145
2416422287.39,-35.295696,-85.805656
2418377321.6031,-36.669022,-93.478294
2420332355.8162,-37.069313,-90.43483
2422287390.0293,-36.247173,-98.00351
2424242424.2424,-35.486416,-105.70238
2426197458.4555,-34.759514,-117.63512
2428152492.6686,-34.837395,-133.32086
2430107526.8817,-35.346348,-144.2729
2432062561.0948,-36.041492,-155.03677
2434017595.3079,-36.508102,-160.87982
2435972629.521,-36.109997,-164.62733
2437927663.7341,-35.351906,-177.51433
2439882697.9472,-35.503334,172.62654
2441837732.1603,-35.277889,162.00058
2443792766.3734,-34.494354,149.49576
2445747800.5865,-35.04285,130.81635
2447702834.7996,-35.969902,114.94395
2449657869.0127,-38.07354,110.03324
2451612903.2258,-38.451786,109.72256
2453567937.4389,-37.165318,105.21846
2455522971.652,-37.392216,87.380684
2457478005.8651,-37.923653,80.457932
2459433040.0782,-38.121021,68.095444
2461388074.2913,-39.261971,62.196907
2463343108.5044,-38.758045,59.322292
2465298142.7175,-37.522568,48.064304
2467253176.9306,-37.145103,29.527916
2469208211.1437,-38.852428,6.7620316
2471163245.3568,-40.874813,7.1503267
2473118279.5699,-40.184673,-1.7636014
2475073313.783,-42.745556,-25.669426
2477028347.9961,-43.134922,-21.018063
2478983382.2092,-45.365662,-37.8606
2480938416.4223,-51.765526,-23.869339
2482893450.6354,-49.081871,12.047043
2484848484.8485,-43.370895,8.2126551
2486803519.0616,-41.847149,-17.107571
2488758553.2747,-42.555832,-30.44676
2490713587.4878,-43.905457,-44.083237
2492668621.7009,-43.575813,-32.583263
2494623655.914,-41.38596,-44.169395
2496578690.1271,-40.789623,-62.092129
2498533724.3402,-41.075592,-83.040154
2500488758.5533,-45.036224,-89.836288
2502443792.7664,-42.086792,-77.140266
2504398826.9795,-41.277485,-102.33741
2506353861.1926,-42.358147,-125.91795
2508308895.4057,-44.340973,-135.56599
2510263929.6188,-48.654221,-155.5141
2512218963.8319,-55.245945,-126.72464
2514173998.045,-54.196018,-69.345406
2516129032.2581,-45.86174,-60.459751
2518084066.4712,-41.350277,-83.836815
2520039100.6843,-40.205372,-110.18996
2521994134.8974,-39.686829,-121.24
2523949169.1105,-38.920078,-140.8306
2525904203.3236,-40.11076,-153.589
2527859237.5367,-40.157619,-161.91934
2529814271.7498,-40.805466,-164.33298
2531769305.9629,-39.655361,-164.62459
2533724340.176,-37.91267,-175.52524
2535679374.3891,-37.150051,168.67953
2537634408.6022,-37.565804,150.52621
2539589442.8152,-38.625477,152.41438
2541544477.0283,-37.271282,144.67599
2543499511.2414,-36.713787,140.19791
2545454545.4545,-34.973232,126.37533
2547409579.6676,-34.567242,110.37286
2549364613.8807,-34.281609,96.690826
2551319648.0938,-33.877876,80.704697
2553274682.3069,-34.676468,67.157936
2555229716.52,-34.843952,54.517971
2557184750.7331,-35.475883,44.964027
2559139784.9462,-35.686596,37.960663
2561094819.1593,-35.402832,27.347252
2563049853.3724,-35.294434,18.319489
2565004887.5855,-35.298401,0.96891433
2566959921.7986,-36.85165,-7.6315823
2568914956.0117,-36.617641,-9.0896893
2570869990.2248,-35.929829,-18.611746
2572825024.4379,-35.408875,-30.287855
2574780058.651,-35.488415,-49.410046
2576735092.8641,-37.210579,-61.585331
2578690127.0772,-38.421154,-65.19149
2580645161.2903,-37.490261,-64.836845
2582600195.5034,-36.953239,-83.304291
2584555229.7165,-38.070351,-91.582115
2586510263.9296,-38.466331,-102.03228
2588465298.1427,-39.020226,-106.84847
2590420332.3558,-38.623333,-117.28526
2592375366.5689,-39.812023,-122.39374
2594330400.782,-39.313263,-131.45941
2596285434.9951,-39.327358,-137.79298
2598240469.2082,-39.294163,-155.02321
2600195503.4213,-41.007507,-159.36705
2602150537.6344,-42.474503,-165.83652
2604105571.8475,-41.753731,-164.33167
2606060606.0606,-42.511814,-164.87779
2608015640.2737,-40.709496,-161.12679
2609970674.4868,-38.645512,-178.69388
2611925708.6999,-39.1936,162.05905
2613880742.913,-39.819046,153.91142
2615835777.1261,-39.97551,145.4765
2617790811.3392,-40.956009,140.82143
2619745845.5523,-39.758404,133.14905
2621700879.7654,-39.880627,123.08818
2623655913.9785,-40.096321,115.7472
2625610948.1916,-39.422516,106.83392
2627565982.4047,-39.509518,94.464119
2629521016.6178,-39.582176,82.662598
2631476050.8309,-39.992405,72.991844
2633431085.044,-41.338871,56.790684
2635386119.2571,-41.855591,66.245842
2637341153.4702,-40.697487,54.083923
2639296187.6833,-40.96941,46.040554
2641251221.8964,-40.598534,36.926487
2643206256.1095,-39.920231,28.446138
2645161290.3226,-39.67638,10.015363
2647116324.5357,-40.947334,-10.241173
2649071358.7488,-42.532902,-22.982248
2651026392.9619,-44.382263,-27.928017
2652981427.175,-45.939217,-34.963406
2654936461.3881,-49.236282,-39.160061
2656891495.6012,-50.23267,-16.715565
2658846529.8143,-48.231251,-12.508263
2660801564.0274,-46.573708,-22.529943
2662756598.2405,-48.463593,-27.250265
2664711632.4536,-48.367409,-38.429031
2666666666.6667,-49.392639,-20.968943
2668621700.8798,-48.611511,5.202435
2670576735.0929,-42.599144,-2.3353119
2672531769.306,-39.96233,-20.026794
2674486803.5191,-38.396591,-40.330021
2676441837.7322,-37.880741,-60.681286
2678396871.9453,-38.852047,-79.489586
2680351906.1584,-38.573044,-79.44593
2682306940.3715,-37.874863,-101.12369
2684261974.5846,-39.83905,-107.80128
2686217008.7977,-39.462975,-104.82894
2688172043.0108,-37.659737,-113.19666
2690127077.2239,-36.323425,-124.12092
2692082111.437,-35.867413,-144.27972
2694037145.65,-36.576633,-155.95357
2695992179.8631,-36.444504,-163.07463
2697947214.0762,-35.149124,-174.50519
2699902248.2893,-35.442806,166.24092
2701857282.5024,-36.025452,155.06944
2703812316.7155,-36.50473,144.4838
2705767350.9286,-36.882183,134.84175
2707722385.1417,-36.945934,128.20453
2709677419.3548,-36.625122,118.93261
2711632453.5679,-36.075661,102.84313
2713587487.781,-36.802273,84.989372
2715542521.9941,-38.780586,77.997452
2717497556.2072,-38.860355,73.359253
2719452590.4203,-39.757751,66.866272
2721407624.6334,-39.577553,63.30093
2723362658.8465,-39.2976,55.675724
2725317693.0596,-38.926441,47.264015
2727272727.2727,-39.039371,29.636518
2729227761.4858,-40.669025,26.883461
2731182795.6989,-40.214451,22.728746
2733137829.912,-40.105984,19.089573
2735092864.1251,-38.714844,11.438328
2737047898.3382,-37.821617,-2.7669091
2739002932.5513,-37.549038,-23.269514
2740957966.7644,-38.883923,-49.33913
2742913000.9775,-42.578251,-61.706497
2744868035.1906,-46.841839,-45.760372
2746823069.4037,-44.425888,-32.153652
2748778103.6168,-44.182274,-32.707947
2750733137.8299,-42.843216,-31.019836
2752688172.043,-39.252792,-35.39986
2754643206.2561,-38.149818,-56.18763
2756598240.4692,-37.566471,-69.363243
2758553274.6823,-36.658585,-86.213478
2760508308.8954,-36.492821,-105.73523
2762463343.1085,-37.651455,-118.76215
2764418377.3216,-38.123749,-133.14218
2766373411.5347,-38.295383,-138.14207
2768328445.7478,-37.602516,-151.14606
2770283479.9609,-37.337349,-169.43073
2772238514.174,-37.922264,164.95561
2774193548.3871,-40.335209,147.32272
2776148582.6002,-42.849701,130.13069
2778103616.8133,-47.917389,130.84889
2780058651.0264,-46.69659,150.13255
2782013685.2395,-46.715401,122.33604
2783968719.4526,-52.559399,119.07407
2785923753.6657,-52.954792,154.54439
2787878787.8788,-48.407978,160.43034
2789833822.0919,-49.871761,141.0851
2791788856.305,-48.329113,132.54404
2793743890.5181,-52.037617,144.78728
2795698924.7312,-49.349682,151.42451
2797653958.9443,-47.840996,154.18272
2799608993.1574,-46.541153,144.54965
2801564027.3705,-44.435829,138.44969
2803519061.5836,-44.198982,123.26769
2805474095.7967,-43.409218,119.25066
2807429130.0098,-42.586945,110.1462
2809384164.2229,-42.19817,100.7171
2811339198.436,-41.255768,98.596436
2813294232.6491,-39.398129,82.916466
2815249266.8622,-39.098511,69.858009
2817204301.0753,-38.53931,55.846825
2819159335.2884,-38.720516,42.120415
2821114369.5015,-38.23325,33.408527
2823069403.7146,-38.281361,18.833517
2825024437.9277,-38.463036,6.0138068
2826979472.1408,-38.796589,-1.1532415
2828934506.3539,-38.022057,-9.4701242
2830889540.567,-37.827747,-26.055513
2832844574.7801,-38.588226,-40.192913
2834799608.9932,-39.304436,-46.854721
2836754643.2063,-39.034569,-57.318504
2838709677.4194,-39.629406,-69.843819
2840664711.6325,-39.893272,-72.213989
2842619745.8456,-39.29237,-87.558189
2844574780.0587,-40.43119,-103.57224
2846529814.2717,-43.01746,-106.66882
2848484848.4848,-42.987549,-102.90205
2850439882.6979,-42.042976,-105.61642
2852394916.911,-41.860142,-103.50008
2854349951.1241,-39.842709,-114.63411
2856304985.3372,-39.041672,-122.95541
2858260019.5503,-37.595978,-141.95825
2860215053.7634,-38.552441,-159.97466
2862170087.9765,-38.729061,-170.68694
2864125122.1896,-39.544422,176.3499
2866080156.4027,-40.05497,164.76703
2868035190.6158,-41.555836,155.92268
2869990224.8289,-42.41811,161.9617
2871945259.042,-40.917831,162.36429
2873900293.2551,-39.3951,147.45374
2875855327.4682,-39.762512,130.76448
2877810361.6813,-39.947315,125.10603
2879765395.8944,-39.425819,115.99603
2881720430.1075,-39.576317,103.79616
2883675464.3206,-40.023651,98.094307
2885630498.5337,-37.928913,87.497078
2887585532.7468,-38.240402,66.978226
2889540566.9599,-39.088242,50.892128
2891495601.173,-39.975651,43.749783
2893450635.3861,-39.704632,27.053993
2895405669.5992,-41.546562,12.804451
2897360703.8123,-42.027203,4.9863882
2899315738.0254,-45.784042,-3.517411
2901270772.2385,-44.212547,13.448018
2903225806.4516,-41.650578,-1.3514428
2905180840.6647,-42.713928,-25.398899
2907135874.8778,-44.089832,-34.533417
2909090909.0909,-44.362652,-47.439144
2911045943.304,-46.928177,-69.652588
2913000977.5171,-51.358589,-53.545425
2914956011.7302,-49.278919,-39.951294
2916911045.9433,-47.31694,-56.516228
2918866080.1564,-49.763733,-86.760735
2920821114.3695,-61.575546,-105.91753
2922776148.5826,-51.707191,-10.018686
2924731182.7957,-47.029861,-40.797501
2926686217.0088,-51.808578,-54.317104
2928641251.2219,-46.835072,-29.926502
2930596285.435,-43.873604,-47.748215
2932551319.6481,-42.951061,-71.124489
2934506353.8612,-43.554962,-81.783264
2936461388.0743,-43.171932,-85.852982
2938416422.2874,-42.159164,-98.557556
2940371456.5005,-41.782551,-103.63185
2942326490.7136,-40.131096,-120.0719
2944281524.9267,-40.127453,-134.39687
2946236559.1398,-39.456032,-149.07979
2948191593.3529,-40.166256,-168.25774
2950146627.566,-41.43959,-179.59273
2952101661.7791,-41.846638,175.72078
2954056695.9922,-42.74979,167.31485
2956011730.2053,-42.044609,168.67862
2957966764.4184,-41.800022,151.18237
2959921798.6315,-42.29948,150.49458
2961876832.8446,-40.754589,140.99432
2963831867.0577,-41.234703,121.77431
2965786901.2708,-42.711754,116.84551
2967741935.4839,-41.651833,115.79221
2969696969.697,-41.335632,103.22083
2971652003.9101,-40.313915,95.876305
2973607038.1232,-39.982426,74.886002
2975562072.3363,-42.179508,59.552521
2977517106.5494,-42.305443,60.121246
2979472140.7625,-42.893768,48.429993
2981427174.9756,-44.699368,50.753845
2983382209.1887,-42.487957,55.967342
2985337243.4018,-41.123302,45.275951
2987292277.6149,-40.050282,30.211409
2989247311.828,-40.961464,11.336473
2991202346.0411,-41.399555,11.447757
2993157380.2542,-40.117798,5.3604488
2995112414.4673,-40.136044,-4.3640356
2997067448.6804,-39.282661,-16.00635
2999022482.8935,-38.778645,-26.199726
3000977517.1065,-37.982662,-37.805462
3002932551.3196,-37.671024,-55.445061
3004887585.5327,-37.678337,-73.187248
3006842619.7458,-39.255497,-90.590385
3008797653.9589,-40.816532,-94.018356
3010752688.172,-40.708691,-93.45298
3012707722.3851,-39.988338,-101.29155
3014662756.5982,-38.829056,-109.35723
3016617790.8113,-38.49773,-123.01426
3018572825.0244,-37.558247,-138.49083
3020527859.2375,-37.832584,-155.8269
3022482893.4506,-38.644405,-171.80374
3024437927.6637,-38.850029,-179.61038
3026392961.8768,-38.799828,168.54448
3028347996.0899,-37.824718,152.71811
3030303030.303,-37.828171,125.33237
3032258064.5161,-40.191235,96.706093
3034213098.7292,-44.280128,85.711021
3036168132.9423,-48.085434,80.21167
3038123167.1554,-49.238689,107.15724
