!CSV A.01.01
!Keysight Technologies,P5008B,MY61100146,A.17.20.08
!Date: Saturday, November 18, 2023 14:08:13
!Source: Standard

BEGIN CH1_DATA
Freq(Hz),S12(DB),S12(DEG)
2000000000,-35.204224,-59.773514
2001955034.2131,-35.00581,-69.635605
2003910068.4262,-33.599785,-81.875443
2005865102.6393,-32.934704,-98.545242
2007820136.8524,-33.349857,-116.13275
2009775171.0655,-33.774368,-129.30028
2011730205.2786,-34.135437,-141.37585
2013685239.4917,-34.621918,-153.24219
2015640273.7048,-35.172222,-164.56252
2017595307.9179,-35.926655,-168.90187
2019550342.131,-36.119171,-177.87932
2021505376.3441,-35.223522,-179.91008
2023460410.5572,-34.777821,163.86346
2025415444.7703,-34.295353,155.47559
2027370478.9834,-33.624245,137.76775
2029325513.1965,-34.350227,119.98292
2031280547.4096,-34.372555,107.36833
2033235581.6227,-35.938324,93.215012
2035190615.8358,-35.286419,85.805313
2037145650.0489,-36.27084,65.151604
2039100684.262,-38.035507,60.869286
2041055718.4751,-37.248222,57.772972
2043010752.6882,-36.010822,37.650211
2044965786.9013,-37.00227,15.930641
2046920821.1144,-37.993496,-4.3371139
2048875855.3275,-38.799133,-18.49279
2050830889.5406,-40.411617,-49.07428
2052785923.7537,-43.367062,-84.831085
2054740957.9668,-50.383217,-145.57874
2056695992.1799,-57.584892,94.129402
2058651026.393,-52.123131,47.205116
2060606060.6061,-54.219242,17.611912
2062561094.8192,-52.309841,47.885796
2064516129.0323,-48.288311,50.210247
2066471163.2454,-43.02758,27.725094
2068426197.4585,-41.107357,-3.3411381
2070381231.6716,-42.338921,-36.600956
2072336265.8847,-43.591507,-46.292126
2074291300.0978,-43.894165,-64.167809
2076246334.3109,-48.619915,-79.82061
2078201368.5239,-45.190475,-64.362694
2080156402.737,-45.058784,-101.64355
2082111436.9501,-46.249893,-125.24619
2084066471.1632,-46.109947,-176.31647
2086021505.3763,-48.087872,97.293678
2087976539.5894,-44.425739,32.603371
2089931573.8025,-43.935421,-26.74687
2091886608.0156,-44.811481,-45.038368
2093841642.2287,-44.489307,-68.946762
2095796676.4418,-48.811054,-75.822693
2097751710.6549,-46.838638,-46.675968
2099706744.868,-42.117443,-62.545033
2101661779.0811,-41.428764,-79.69474
2103616813.2942,-41.025215,-90.434341
2105571847.5073,-38.452709,-106.26868
2107526881.7204,-39.274197,-132.99341
2109481915.9335,-41.377686,-121.18902
2111436950.1466,-37.630447,-133.35011
2113391984.3597,-37.667446,-147.69714
2115347018.5728,-36.548973,-148.85692
2117302052.7859,-34.674736,-165.62973
2119257086.999,-33.536083,175.74855
2121212121.2121,-33.146374,156.22731
2123167155.4252,-32.565689,137.45863
2125122189.6383,-32.899277,114.42015
2127077223.8514,-34.80566,96.473282
2129032258.0645,-36.427921,91.454292
2130987292.2776,-36.723511,80.736938
2132942326.4907,-37.708122,87.440163
2134897360.7038,-35.628178,74.284431
2136852394.9169,-34.977657,58.56377
2138807429.13,-35.601646,43.621517
2140762463.3431,-36.044651,25.668869
2142717497.5562,-38.328983,15.328022
2144672531.7693,-38.499584,14.916483
2146627565.9824,-39.595146,9.7118607
2148582600.1955,-38.051231,8.1209059
2150537634.4086,-39.467846,2.4978471
2152492668.6217,-37.155235,-1.9486967
2154447702.8348,-36.468689,-21.792898
2156402737.0479,-37.283001,-30.528484
2158357771.261,-37.280113,-38.871536
2160312805.4741,-37.135006,-48.015358
2162267839.6872,-37.250668,-54.856045
2164222873.9003,-36.429718,-63.223167
2166177908.1134,-35.904598,-75.753868
2168132942.3265,-35.091122,-84.84716
2170087976.5396,-34.430187,-102.60443
2172043010.7527,-34.707146,-124.08015
2173998044.9658,-36.006092,-135.54083
2175953079.1789,-36.617733,-148.03864
2177908113.392,-38.246616,-147.45987
2179863147.6051,-35.898235,-155.31172
2181818181.8182,-35.215668,-175.67207
2183773216.0313,-35.701626,161.15019
2185728250.2444,-36.010715,143.49545
2187683284.4575,-37.682915,117.47442
2189638318.6706,-41.622555,96.233101
2191593352.8837,-45.763908,100.34027
2193548387.0968,-47.545372,101.46175
2195503421.3099,-47.859463,84.686333
2197458455.523,-71.69194,109.98186
2199413489.7361,-47.295532,156.90953
2201368523.9492,-47.700989,120.98979
2203323558.1623,-48.106419,127.76761
2205278592.3754,-46.011303,121.3977
2207233626.5885,-48.473137,106.77249
2209188660.8016,-46.772598,124.24783
2211143695.0147,-44.594349,111.38464
2213098729.2278,-43.958275,89.97438
2215053763.4409,-46.025059,76.855995
2217008797.654,-46.814575,99.496948
2218963831.8671,-45.102409,90.121605
2220918866.0802,-43.420719,93.362411
2222873900.2933,-41.070187,79.606834
2224828934.5064,-39.230625,56.836609
2226783968.7195,-40.888531,34.269222
2228739002.9326,-42.486729,34.334686
2230694037.1456,-40.838192,41.816036
2232649071.3587,-37.859856,18.964504
2234604105.5718,-39.144699,-2.3608491
2236559139.7849,-38.93998,-12.943573
2238514173.998,-40.152767,-30.967751
2240469208.2111,-41.227512,-34.256874
2242424242.4242,-41.264561,-49.109833
2244379276.6373,-43.362923,-58.029587
2246334310.8504,-43.937805,-65.30423
2248289345.0635,-49.370064,-65.549446
2250244379.2766,-48.802097,-14.513952
2252199413.4897,-41.250137,-12.830524
2254154447.7028,-37.291954,-35.521633
2256109481.9159,-36.263046,-64.65519
2258064516.129,-36.669231,-84.065384
2260019550.3421,-37.965206,-92.058556
2261974584.5552,-37.150791,-97.899261
2263929618.7683,-36.153816,-105.48104
2265884652.9814,-34.708328,-120.38508
2267839687.1945,-34.991016,-137.85529
2269794721.4076,-35.540047,-150.79337
2271749755.6207,-35.425228,-156.51582
2273704789.8338,-34.734161,-167.11546
2275659824.0469,-34.307678,-179.74823
2277614858.26,-33.739994,166.34718
2279569892.4731,-34.179672,151.25034
2281524926.6862,-33.976952,141.77014
2283479960.8993,-33.693008,127.12122
2285434995.1124,-34.00222,110.36446
2287390029.3255,-35.367706,99.756516
2289345063.5386,-34.609161,90.968124
2291300097.7517,-34.916241,76.37355
2293255131.9648,-35.448978,58.495285
2295210166.1779,-37.349808,53.077133
2297165200.391,-36.668537,47.346119
2299120234.6041,-37.390846,30.505869
2301075268.8172,-37.813087,22.566114
2303030303.0303,-38.242081,16.998211
2304985337.2434,-38.361271,1.8912412
2306940371.4565,-39.126537,-7.1494327
2308895405.6696,-39.234276,-21.420868
2310850439.8827,-40.781963,-45.148296
2312805474.0958,-46.905151,-53.362797
2314760508.3089,-46.04298,-10.194706
2316715542.522,-42.864597,-17.899878
2318670576.7351,-41.52969,-35.485107
2320625610.9482,-42.393734,-56.106766
2322580645.1613,-44.763653,-61.08717
2324535679.3744,-45.413342,-56.32444
2326490713.5875,-45.44162,-51.601425
2328445747.8006,-43.008907,-48.017086
2330400782.0137,-40.376171,-58.566822
2332355816.2268,-39.143692,-82.281685
2334310850.4399,-39.438446,-105.05262
2336265884.653,-41.126507,-130.58493
2338220918.8661,-44.312599,-125.09833
2340175953.0792,-43.926205,-133.38187
2342130987.2923,-44.190002,-136.1351
2344086021.5054,-45.953003,-138.72609
2346041055.7185,-43.961823,-146.16466
2347996089.9316,-46.950733,-167.3461
2349951124.1447,-46.304836,-140.1194
2351906158.3578,-45.297409,-154.14893
2353861192.5709,-43.569809,-158.07745
2355816226.784,-43.011494,178.49516
2357771260.9971,-44.392925,167.13031
2359726295.2102,-47.024387,160.77867
2361681329.4233,-46.848774,179.49977
2363636363.6364,-45.378468,160.51773
2365591397.8495,-44.662365,157.96902
2367546432.0626,-45.772434,122.73629
2369501466.2757,-54.954617,135.76642
2371456500.4888,-48.758476,-165.92401
2373411534.7019,-44.916786,178.93706
2375366568.915,-41.040447,172.04077
2377321603.1281,-39.833233,149.1179
2379276637.3412,-39.268509,138.25291
2381231671.5543,-37.92728,122.12489
2383186705.7674,-37.917957,104.07419
2385141739.9804,-38.755539,94.651024
2387096774.1935,-38.401096,86.245499
2389051808.4066,-38.326183,80.667435
2391006842.6197,-36.870724,71.959763
2392961876.8328,-36.342827,53.57885
2394916911.0459,-37.229992,41.933651
2396871945.259,-37.398697,37.669628
2398826979.4721,-37.238182,32.42506
2400782013.6852,-36.072041,26.005907
2402737047.8983,-35.112041,13.913435
2404692082.1114,-34.502018,1.6298101
2406647116.3245,-33.688141,-10.92648
2408602150.5376,-33.697372,-25.48794
2410557184.7507,-33.224667,-39.709618
2412512218.9638,-33.027328,-55.66341
2414467253.1769,-33.856354,-74.016411
2416422287.39,-35.222401,-84.772835
2418377321.6031,-36.340649,-93.042191
2420332355.8162,-36.803207,-91.772667
2422287390.0293,-36.070103,-98.550804
2424242424.2424,-35.208965,-106.52581
2426197458.4555,-34.508503,-120.23017
2428152492.6686,-34.800652,-136.6476
2430107526.8817,-35.560608,-147.55864
2432062561.0948,-36.297371,-157.05452
2434017595.3079,-36.687565,-162.30685
2435972629.521,-36.507977,-166.62959
2437927663.7341,-35.751251,-177.8535
2439882697.9472,-35.938126,172.52562
2441837732.1603,-35.565281,162.58784
2443792766.3734,-34.850079,150.34624
2445747800.5865,-35.271423,132.02539
2447702834.7996,-36.189838,115.6477
2449657869.0127,-38.390873,111.38554
2451612903.2258,-38.744968,111.79036
2453567937.4389,-37.315113,107.97216
2455522971.652,-37.347256,90.583595
2457478005.8651,-37.880699,82.528275
2459433040.0782,-37.962421,71.184853
2461388074.2913,-38.922871,63.349464
2463343108.5044,-38.48827,59.486912
2465298142.7175,-37.426022,48.373581
2467253176.9306,-37.077465,30.072613
2469208211.1437,-38.712379,8.7762012
2471163245.3568,-40.538467,7.8226814
2473118279.5699,-40.101818,-1.4618645
2475073313.783,-42.640984,-21.732996
2477028347.9961,-42.314262,-17.610104
2478983382.2092,-44.035877,-37.799797
2480938416.4223,-50.24213,-35.999195
2482893450.6354,-49.884449,2.57145
2484848484.8485,-43.720589,6.6899943
2486803519.0616,-41.997387,-18.664452
2488758553.2747,-42.421654,-32.905426
2490713587.4878,-44.178295,-49.707241
2492668621.7009,-44.277081,-35.146313
2494623655.914,-42.202251,-45.340881
2496578690.1271,-41.603802,-61.461773
2498533724.3402,-41.648979,-80.276154
2500488758.5533,-45.6096,-84.13913
2502443792.7664,-42.222122,-72.744873
2504398826.9795,-41.114609,-99.135635
2506353861.1926,-42.453423,-123.93306
2508308895.4057,-44.680161,-131.41986
2510263929.6188,-48.795326,-144.27353
2512218963.8319,-52.35466,-121.41839
2514173998.045,-53.563778,-83.139137
2516129032.2581,-46.385052,-64.780624
2518084066.4712,-41.428082,-85.610825
2520039100.6843,-40.211727,-111.93424
2521994134.8974,-39.691879,-122.52939
2523949169.1105,-38.985226,-142.26967
2525904203.3236,-40.202015,-155.17369
2527859237.5367,-40.177296,-162.06548
2529814271.7498,-40.823215,-166.54922
2531769305.9629,-39.95108,-166.8093
2533724340.176,-38.219479,-175.95204
2535679374.3891,-37.514416,168.85977
2537634408.6022,-37.90575,151.95853
2539589442.8152,-38.642021,155.21561
2541544477.0283,-37.032486,145.88794
2543499511.2414,-36.604794,139.82585
2545454545.4545,-34.895069,126.25333
2547409579.6676,-34.575153,110.08093
2549364613.8807,-34.315125,95.967155
2551319648.0938,-33.972206,80.589134
2553274682.3069,-34.829636,67.784668
2555229716.52,-34.834145,55.490627
2557184750.7331,-35.428959,45.370628
2559139784.9462,-35.599438,38.161652
2561094819.1593,-35.313576,26.65649
2563049853.3724,-35.364826,18.287767
2565004887.5855,-35.326126,1.4202756
2566959921.7986,-36.828194,-6.8551297
2568914956.0117,-36.50568,-9.2234354
2570869990.2248,-35.956146,-19.355436
2572825024.4379,-35.477119,-30.283764
2574780058.651,-35.560638,-49.137108
2576735092.8641,-37.199188,-61.506523
2578690127.0772,-38.404461,-64.734955
2580645161.2903,-37.388981,-64.887474
2582600195.5034,-36.944775,-83.605026
2584555229.7165,-38.051582,-91.992226
2586510263.9296,-38.409977,-103.25969
2588465298.1427,-39.359745,-107.37707
2590420332.3558,-38.785213,-115.81074
2592375366.5689,-39.848785,-120.97952
2594330400.782,-39.37154,-130.75549
2596285434.9951,-39.259212,-136.22957
2598240469.2082,-39.208744,-154.31334
2600195503.4213,-40.777103,-158.39285
2602150537.6344,-42.273697,-165.62724
2604105571.8475,-41.581783,-164.43837
2606060606.0606,-42.337204,-164.77599
2608015640.2737,-40.451317,-163.15245
2609970674.4868,-38.63044,179.2184
2611925708.6999,-39.298958,160.88358
2613880742.913,-39.969757,153.0874
2615835777.1261,-40.211231,146.05579
2617790811.3392,-40.980354,141.92291
2619745845.5523,-39.58403,133.2014
2621700879.7654,-39.796425,122.3825
2623655913.9785,-40.205315,114.67444
2625610948.1916,-39.548462,105.8988
2627565982.4047,-39.720364,94.461143
2629521016.6178,-39.634102,83.070068
2631476050.8309,-40.011093,72.953957
2633431085.044,-41.477154,56.427849
2635386119.2571,-41.943871,66.760681
2637341153.4702,-40.760937,54.019428
2639296187.6833,-41.120354,47.303802
2641251221.8964,-40.502876,37.311974
2643206256.1095,-39.87841,28.45458
2645161290.3226,-39.683361,9.7092323
2647116324.5357,-41.037224,-10.010541
2649071358.7488,-42.728813,-22.359221
2651026392.9619,-44.186069,-26.252697
2652981427.175,-45.858162,-33.706409
2654936461.3881,-49.152012,-38.6497
2656891495.6012,-49.948071,-11.902332
2658846529.8143,-47.055199,-11.69641
2660801564.0274,-46.097893,-28.514566
2662756598.2405,-48.829063,-31.01466
2664711632.4536,-48.340607,-38.15266
2666666666.6667,-49.49168,-25.91585
2668621700.8798,-49.264191,4.4624529
2670576735.0929,-42.726761,-1.9269906
2672531769.306,-40.045441,-21.552622
2674486803.5191,-38.72345,-40.567379
2676441837.7322,-38.133034,-60.718933
2678396871.9453,-39.067959,-78.246628
2680351906.1584,-38.586338,-78.597992
2682306940.3715,-37.933823,-99.773636
2684261974.5846,-39.72049,-107.27105
2686217008.7977,-39.410973,-104.72848
2688172043.0108,-37.692101,-113.23202
2690127077.2239,-36.429054,-124.25006
2692082111.437,-36.02282,-143.51306
2694037145.65,-36.533577,-154.02449
2695992179.8631,-36.279194,-162.58548
2697947214.0762,-35.131847,-174.74989
2699902248.2893,-35.487801,167.061
2701857282.5024,-35.81152,156.87149
2703812316.7155,-36.137589,144.64526
2705767350.9286,-36.658943,133.54605
2707722385.1417,-36.678627,126.1722
2709677419.3548,-36.614204,116.50151
2711632453.5679,-36.291458,101.12594
2713587487.781,-36.844521,84.70031
2715542521.9941,-38.730438,76.141594
2717497556.2072,-39.126369,71.350655
2719452590.4203,-40.130798,66.011131
2721407624.6334,-39.963852,63.927032
2723362658.8465,-39.473114,57.595749
2725317693.0596,-38.880894,47.308605
2727272727.2727,-39.282223,29.644096
2729227761.4858,-41.080841,29.60552
2731182795.6989,-40.092823,25.825541
2733137829.912,-39.731453,19.61315
2735092864.1251,-38.574093,9.5881128
2737047898.3382,-37.960308,-3.5098002
2739002932.5513,-37.698223,-22.002771
2740957966.7644,-38.766724,-47.357712
2742913000.9775,-42.068901,-60.831871
2744868035.1906,-46.499027,-49.416351
2746823069.4037,-44.599087,-35.228951
2748778103.6168,-44.481747,-34.327202
2750733137.8299,-43.322376,-30.471079
2752688172.043,-39.428417,-34.24704
2754643206.2561,-38.293232,-54.882664
2756598240.4692,-37.702503,-69.388535
2758553274.6823,-36.931538,-85.497963
2760508308.8954,-36.78437,-104.00077
2762463343.1085,-37.776241,-115.43661
2764418377.3216,-37.900711,-130.57074
2766373411.5347,-38.073368,-137.07259
2768328445.7478,-37.445465,-150.99371
2770283479.9609,-37.33321,-169.37407
2772238514.174,-37.940605,165.85281
2774193548.3871,-40.32304,147.49545
2776148582.6002,-42.98317,130.40244
2778103616.8133,-48.771084,136.30548
2780058651.0264,-46.239334,156.07857
2782013685.2395,-45.863441,129.0775
2783968719.4526,-50.414536,120.24256
2785923753.6657,-51.803455,143.79916
2787878787.8788,-48.592468,155.1662
2789833822.0919,-50.12635,138.00266
2791788856.305,-48.152336,130.71588
2793743890.5181,-52.193321,136.4783
2795698924.7312,-49.91877,148.83369
2797653958.9443,-48.255211,153.1678
2799608993.1574,-47.170727,145.14536
2801564027.3705,-44.901215,140.26413
2803519061.5836,-44.386223,123.64133
2805474095.7967,-43.661804,122.42196
2807429130.0098,-42.458378,111.19395
2809384164.2229,-42.258259,102.54956
2811339198.436,-40.97797,99.241142
2813294232.6491,-39.312714,83.699883
2815249266.8622,-38.971291,70.213203
2817204301.0753,-38.420193,55.626034
2819159335.2884,-38.570206,42.262932
2821114369.5015,-38.002014,32.310379
2823069403.7146,-38.260391,17.425615
2825024437.9277,-38.356293,5.6491556
2826979472.1408,-38.766079,-3.1042597
2828934506.3539,-38.104473,-10.102476
2830889540.567,-37.826782,-26.945082
2832844574.7801,-38.713749,-42.293392
2834799608.9932,-39.588486,-46.659637
2836754643.2063,-39.289551,-55.244057
2838709677.4194,-39.443714,-67.620026
2840664711.6325,-39.555351,-71.908638
2842619745.8456,-39.065693,-87.96566
2844574780.0587,-40.163162,-105.12156
2846529814.2717,-42.775261,-107.83685
2848484848.4848,-42.80761,-106.94083
2850439882.6979,-42.22485,-107.84509
2852394916.911,-42.143112,-105.66368
2854349951.1241,-39.98267,-116.09072
2856304985.3372,-39.27684,-123.76376
2858260019.5503,-37.619934,-143.42062
2860215053.7634,-38.774628,-162.38298
2862170087.9765,-39.085285,-172.99796
2864125122.1896,-40.258152,174.81728
2866080156.4027,-40.764629,164.92497
2868035190.6158,-42.326637,157.3463
2869990224.8289,-42.721806,167.31342
2871945259.042,-41.111568,164.67996
2873900293.2551,-39.656445,151.09584
2875855327.4682,-39.684765,136.21973
2877810361.6813,-39.457314,127.96873
2879765395.8944,-39.019596,116.50603
2881720430.1075,-39.292969,104.41002
2883675464.3206,-39.630104,98.65844
2885630498.5337,-37.834763,85.754593
2887585532.7468,-38.155258,66.548988
2889540566.9599,-39.222763,50.736984
2891495601.173,-40.324932,43.487476
2893450635.3861,-39.869656,28.904732
2895405669.5992,-41.518742,15.657734
2897360703.8123,-42.081879,6.6436753
2899315738.0254,-45.534462,-0.14726868
2901270772.2385,-43.849743,16.61009
2903225806.4516,-41.117123,-0.17688061
2905180840.6647,-42.364731,-24.699102
2907135874.8778,-43.522629,-32.426186
2909090909.0909,-43.717224,-48.344666
2911045943.304,-46.117706,-69.086044
2913000977.5171,-49.760464,-62.115654
2914956011.7302,-50.184765,-49.840687
2916911045.9433,-47.926537,-57.80027
2918866080.1564,-50.293808,-87.954597
2920821114.3695,-62.422363,-106.63118
2922776148.5826,-51.255047,-5.4638939
2924731182.7957,-46.540077,-41.150921
2926686217.0088,-51.332222,-59.097637
2928641251.2219,-47.245075,-34.06694
2930596285.435,-44.472263,-49.331177
2932551319.6481,-43.341881,-70.423828
2934506353.8612,-43.735126,-81.842064
2936461388.0743,-43.593311,-86.6437
2938416422.2874,-42.585064,-97.993607
2940371456.5005,-41.998268,-101.53905
2942326490.7136,-40.334801,-118.76836
2944281524.9267,-40.202816,-133.55516
2946236559.1398,-39.756569,-148.13943
2948191593.3529,-40.502087,-166.82353
2950146627.566,-41.638615,-174.2744
2952101661.7791,-41.574608,179.41618
2954056695.9922,-42.161915,170.38779
2956011730.2053,-41.512489,168.60281
2957966764.4184,-41.185799,150.21297
2959921798.6315,-42.126308,147.47125
2961876832.8446,-41.009708,139.20851
2963831867.0577,-41.429955,121.65925
2965786901.2708,-42.590389,117.94582
2967741935.4839,-41.496964,115.93793
2969696969.697,-40.973919,101.78265
2971652003.9101,-40.477608,93.481781
2973607038.1232,-40.228722,74.623024
2975562072.3363,-42.269791,58.996559
2977517106.5494,-42.483246,61.063667
2979472140.7625,-42.980167,48.996811
2981427174.9756,-44.746769,51.764244
2983382209.1887,-42.454182,56.786129
2985337243.4018,-41.039219,45.429672
2987292277.6149,-40.058014,30.431881
2989247311.828,-40.793781,12.09245
2991202346.0411,-41.322536,10.092518
2993157380.2542,-40.208782,5.1760983
2995112414.4673,-40.282185,-5.1500492
2997067448.6804,-39.258495,-14.888745
2999022482.8935,-38.709152,-26.532768
3000977517.1065,-38.037155,-38.503914
3002932551.3196,-37.80608,-55.669468
3004887585.5327,-37.843845,-73.589096
3006842619.7458,-39.61293,-89.691742
3008797653.9589,-41.038818,-90.873985
3010752688.172,-40.542007,-90.362679
3012707722.3851,-39.504105,-99.28257
3014662756.5982,-38.43845,-109.36526
3016617790.8113,-38.181221,-123.60018
3018572825.0244,-37.246307,-138.38449
3020527859.2375,-37.49041,-157.19548
3022482893.4506,-38.366806,-173.99655
3024437927.6637,-38.991299,177.83932
3026392961.8768,-38.920898,168.50676
3028347996.0899,-37.781879,152.74796
3030303030.303,-37.624283,124.83146
3032258064.5161,-39.723045,95.124657
3034213098.7292,-44.333012,79.658569
3036168132.9423,-48.765427,75.470688
3038123167.1554,-50.046993,110.08138
3040078201.3685,-46.372673,90.757721
