Freq(Hz),"A,1"(DB),"A,1"(DEG),S21(DB),S21(DEG)
3950000000,-14.612244,-78.222992,-42.119377,40.302689
3954636591.4787,-14.833048,-94.684448,-41.909504,-19.07984
3959273182.9574,-14.175189,-108.9548,-43.462944,-67.748199
3963909774.4361,-13.786655,-132.61549,-42.514145,-109.95023
3968546365.9148,-12.834872,-151.98541,-44.285988,-161.22774
3973182957.3935,-12.088885,-177.98688,-50.217144,113.15759
3977819548.8722,-11.957601,158.52924,-60.732563,-141.26135
3982456140.3509,-12.237029,136.48602,-48.573803,165.82161
3987092731.8296,-13.187946,118.48809,-43.74884,126.83396
3991729323.3083,-12.404035,108.72648,-40.487633,70.671402
3996365914.787,-12.117535,88.38588,-38.061642,17.204475
4001002506.2657,-12.404965,72.66008,-37.785488,-44.877415
4005639097.7444,-12.116912,55.610744,-39.612785,-110.5364
4010275689.2231,-13.212002,35.707767,-47.511955,-155.86539
4014912280.7018,-13.844961,27.933752,-50.899223,-111.91826
4019548872.1805,-13.710057,18.530897,-42.753437,-155.93246
4024185463.6591,-12.328754,3.0028434,-41.972855,162.47717
4028822055.1378,-12.499333,-15.294631,-41.861279,128.17683
4033458646.6165,-12.177376,-38.739513,-39.142303,89.63102
4038095238.0952,-13.221693,-59.924564,-39.501469,42.956692
4042731829.5739,-13.347604,-75.027802,-38.236702,11.419522
4047368421.0526,-13.259521,-96.991837,-36.289394,-40.914124
4052005012.5313,-13.325713,-120.81143,-38.292664,-99.235405
4056641604.01,-13.368025,-144.84789,-40.459137,-122.65763
4061278195.4887,-13.132134,-167.63857,-41.875648,-167.86897
4065914786.9674,-13.106447,168.30156,-40.900841,171.96565
4070551378.4461,-13.155739,144.43723,-40.797977,129.18059
4075187969.9248,-13.020013,120.91396,-38.858002,89.711281
4079824561.4035,-14.062065,101.10901,-39.82011,48.408497
4084461152.8822,-13.898388,85.773621,-40.163586,3.255738
4089097744.3609,-14.050788,69.310959,-38.772293,-35.367558
4093734335.8396,-14.611078,51.847294,-40.334915,-72.246964
4098370927.3183,-14.746478,40.264961,-40.051598,-112.13683
4103007518.797,-14.77503,28.945557,-39.854435,-151.10022
4107644110.2757,-15.717703,12.868278,-40.456318,178.13208
4112280701.7544,-15.345705,-0.38280845,-38.991024,145.62823
4116917293.2331,-15.82227,-10.565904,-40.934799,95.713562
4121553884.7118,-15.034457,-30.359905,-39.667625,90.264687
4126190476.1905,-15.766406,-50.087212,-38.791855,38.68261
4130827067.6692,-16.297476,-71.038673,-41.853695,24.528006
4135463659.1479,-17.360752,-92.890877,-38.422596,-6.0079536
4140100250.6266,-17.773569,-118.49691,-36.354637,-50.069302
4144736842.1053,-18.771025,-144.7883,-38.733532,-93.688835
4149373433.584,-19.265062,-172.65829,-38.645782,-126.65787
4154010025.0627,-19.618881,162.85039,-39.058029,-167.31277
4158646616.5414,-18.176556,125.77477,-41.005905,163.15242
4163283208.0201,-18.661175,101.31868,-41.728401,157.15747
4167919799.4987,-17.318367,72.539482,-38.259075,105.90408
4172556390.9774,-17.425413,41.996346,-40.127312,66.056953
4177192982.4561,-18.422333,13.734785,-39.811745,32.002758
4181829573.9348,-19.950251,-5.124331,-39.178963,-3.4379315
4186466165.4135,-20.848713,-28.239096,-38.332924,-45.734669
4191102756.8922,-21.894146,-52.183933,-39.751598,-91.595268
4195739348.3709,-23.120245,-70.408173,-40.460697,-128.71761
4200375939.8496,-22.747669,-102.58143,-41.750301,-174.92244
4205012531.3283,-22.911034,-142.55952,-42.737682,152.33977
4209649122.807,-23.372404,178.13882,-45.412426,138.39859
4214285714.2857,-23.439537,157.49261,-42.188366,111.54988
4218922305.7644,-20.959885,135.64035,-38.364712,55.454659
4223558897.2431,-20.94504,118.81641,-38.604198,-3.7903132
4228195488.7218,-19.317326,109.74098,-40.841377,-51.80582
4232832080.2005,-17.106617,97.942032,-42.404083,-101.20877
4237468671.6792,-15.293997,80.087509,-46.304432,-131.56729
4242105263.1579,-13.629171,61.033043,-47.919876,-152.58824
4246741854.6366,-13.446519,42.280285,-43.954529,169.48854
4251378446.1153,-12.72109,30.327263,-51.265888,104.01427
4256015037.594,-12.525024,12.740236,-60.348923,167.07977
4260651629.0727,-11.769529,0.34013528,-45.857971,113.32302
4265288220.5514,-11.207596,-18.420151,-45.379559,71.608177
4269924812.0301,-11.614395,-38.929264,-43.922581,11.090339
4274561403.5088,-11.550577,-54.780178,-44.534195,-37.351742
4279197994.9875,-12.17666,-77.359497,-45.713066,-76.801559
4283834586.4662,-13.524843,-97.1614,-46.261002,-95.058716
4288471177.9449,-14.752004,-111.32022,-43.266285,-148.52727
4293107769.4236,-15.513281,-127.10188,-43.084286,153.03664
4297744360.9023,-15.391371,-143.71193,-47.079624,102.34415
4302380952.381,-15.781224,-169.14182,-47.180038,73.812843
4307017543.8596,-17.558979,167.26114,-48.925922,95.633629
4311654135.3383,-18.32971,154.55066,-43.110703,29.257006
4316290726.817,-17.910936,137.50543,-42.672585,-33.426876
4320927318.2957,-17.464682,123.45627,-48.926826,-39.120365
4325563909.7744,-16.246365,105.64391,-41.080746,-87.93689
4330200501.2531,-14.771825,85.631119,-47.881687,-133.37703
4334837092.7318,-14.415204,67.540932,-44.89233,-134.30521
4339473684.2105,-13.89925,42.995411,-40.464725,-170.49731
4344110275.6892,-14.107906,27.69034,-39.785664,136.05025
4348746867.1679,-14.120318,10.043698,-40.179523,83.734222
4353383458.6466,-14.0764,-0.12045615,-41.376492,25.014534
4358020050.1253,-13.483712,-15.79735,-44.951809,-30.479265
4362656641.604,-13.183231,-35.433601,-56.859627,-82.286736
4367293233.0827,-14.037541,-57.404846,-60.076359,169.71144
4371929824.5614,-15.770039,-71.571678,-48.202126,28.41291
4376566416.0401,-16.594494,-87.494347,-41.915329,-43.455475
4381203007.5188,-18.127563,-99.72831,-43.881493,-97.998856
4385839598.9975,-19.663,-118.11396,-45.01189,-126.23792
4390476190.4762,-22.223118,-132.66945,-41.273064,-175.40285
4395112781.9549,-24.674631,-143.10567,-40.571125,132.35269
4399749373.4336,-28.570997,-152.57628,-43.445896,77.532692
4404385964.9123,-29.73966,-152.778,-43.282383,28.259808
4409022556.391,-30.368767,-149.13583,-48.251778,-28.551842
4413659147.8697,-26.451754,-163.83211,-48.676823,9.2675209
4418295739.3484,-24.565264,152.9845,-45.294247,-39.010708
4422932330.8271,-23.762367,112.88673,-42.532936,-61.738647
4427568922.3058,-24.027405,80.351677,-40.711971,-121.56467
4432205513.7845,-23.793446,37.906414,-41.11002,-171.55827
4436842105.2632,-27.295841,9.6556387,-41.62804,137.46368
4441478696.7419,-32.56855,47.109207,-43.610748,84.319107
4446115288.2206,-26.106119,31.939072,-51.235229,38.860691
4450751879.6992,-26.353735,14.38049,-59.543865,92.748901
4455388471.1779,-27.551512,6.890182,-49.556751,45.132
4460025062.6566,-28.562412,-6.016778,-44.470963,15.478847
4464661654.1353,-28.672302,18.524557,-46.479683,-35.475487
4469298245.614,-27.007376,27.755428,-43.538162,-65.130119
4473934837.0927,-25.271353,25.707792,-44.1078,-112.23669
4478571428.5714,-21.930904,22.71937,-42.786858,-150.45908
4483208020.0501,-19.744781,6.1368399,-42.577332,163.05133
4487844611.5288,-19.029251,-4.6416483,-41.930557,103.91801
4492481203.0075,-18.459875,-19.942404,-42.872265,33.267696
4497117794.4862,-17.786602,-22.585043,-48.164566,-21.178732
4501754385.9649,-16.567196,-38.606663,-51.139072,-67.615532
4506390977.4436,-15.602634,-53.157074,-58.562122,124.427
4511027568.9223,-15.440577,-72.289177,-48.760296,9.04673
4515664160.401,-16.171679,-87.485405,-44.371841,-68.049072
4520300751.8797,-16.530907,-98.827301,-42.438499,-100.49146
4524937343.3584,-16.237074,-113.12806,-40.44857,-160.86967
4529573934.8371,-16.908375,-129.29973,-41.084133,145.80479
4534210526.3158,-16.646048,-141.77835,-42.625008,99.560059
4538847117.7945,-17.023783,-161.2644,-41.856518,77.485115
4543483709.2732,-17.126116,-171.99808,-40.666168,18.652956
4548120300.7519,-16.678705,166.85909,-44.878551,-24.848745
4552756892.2306,-16.099743,148.36183,-45.346279,-51.113392
4557393483.7093,-15.763206,128.85068,-47.604652,-85.523148
4562030075.188,-14.890425,111.31075,-46.185871,-79.18943
4566666666.6667,-14.02124,89.462891,-43.454536,-129.10089
4571303258.1454,-13.741775,71.553238,-43.578907,-177.243
4575939849.6241,-13.066796,52.398621,-42.813683,153.49281
4580576441.1028,-12.588996,33.749813,-40.724106,85.657188
4585213032.5815,-12.470695,18.226444,-45.328865,32.060696
4589849624.0602,-12.072807,6.3279819,-50.68523,-31.498159
4594486215.5388,-10.768963,-8.5577002,-54.350628,-3.2228346
4599122807.0175,-10.336088,-29.965269,-57.232197,-29.288521
4603759398.4962,-10.39778,-47.150883,-43.767845,-21.408171
4608395989.9749,-10.454286,-62.355392,-42.735603,-102.43661
4613032581.4536,-10.824819,-77.089218,-42.264683,-146.59129
4617669172.9323,-10.772837,-89.681587,-42.319344,169.56657
4622305764.411,-10.953062,-105.93069,-41.497543,118.86246
4626942355.8897,-10.78484,-118.92973,-41.453224,44.303707
4631578947.3684,-10.744778,-136.97324,-47.804096,7.8109021
4636215538.8471,-11.095761,-153.8633,-48.552372,-39.378063
4640852130.3258,-11.611772,-169.14554,-50.281738,-117.88242
4645488721.8045,-11.369185,174.90028,-55.651302,109.75694
4650125313.2832,-11.272832,158.99953,-51.404167,-23.463224
4654761904.7619,-11.17653,140.68434,-58.496658,-116.19547
4659398496.2406,-10.94942,122.16251,-52.096104,-96.371391
4664035087.7193,-10.682899,101.31611,-52.441883,159.99222
4668671679.198,-10.874917,83.18161,-58.262974,121.85269
4673308270.6767,-10.639047,63.303253,-57.115234,177.89133
4677944862.1554,-10.991426,46.530788,-52.49781,76.760445
4682581453.6341,-10.783431,32.797653,-60.996758,-33.471741
4687218045.1128,-10.394757,14.421617,-50.587181,19.554323
4691854636.5915,-10.54557,0.14923358,-45.890755,-67.03627
4696491228.0702,-9.8920965,-13.946429,-47.180904,-157.6057
4701127819.5489,-9.7611961,-32.866955,-49.564945,150.71835
4705764411.0276,-9.8828449,-48.501732,-54.530106,90.710548
4710401002.5063,-9.8749418,-62.779419,-54.669056,69.268776
4715037593.985,-9.9444199,-78.973366,-58.099277,8.4051638
4719674185.4637,-9.9112053,-92.329483,-53.14093,2.8309226
4724310776.9424,-9.9862576,-111.8638,-51.471176,-59.104366
4728947368.4211,-10.523166,-125.43072,-46.993622,170.35054
4733583959.8997,-10.332712,-141.56786,-44.472462,47.631657
4738220551.3784,-10.742982,-159.15192,-48.712971,-15.111929
4742857142.8571,-11.039118,-177.32889,-48.418941,-51.676258
4747493734.3358,-11.418345,165.49368,-45.663147,-101.53979
4752130325.8145,-11.641025,147.17754,-48.125587,-168.84367
4756766917.2932,-11.702742,129.35281,-58.485123,-153.27263
4761403508.7719,-11.606139,108.19546,-49.652409,-172.50269
4766040100.2506,-12.144217,88.997658,-50.034054,143.05942
4770676691.7293,-12.335473,71.674225,-47.670113,106.84627
4775313283.208,-12.0455,55.751289,-51.530365,57.433525
4779949874.6867,-11.846378,36.806931,-53.936333,76.82058
4784586466.1654,-11.84778,21.195566,-49.475822,23.783243
4789223057.6441,-11.444714,5.2934771,-50.252129,-6.0373149
4793859649.1228,-11.312536,-10.578317,-49.389664,-24.097244
4798496240.6015,-11.539911,-27.208948,-45.558464,-38.152245
4803132832.0802,-11.730652,-42.142422,-43.05143,-105.76172
4807769423.5589,-11.510734,-53.602528,-42.068108,-154.22528
4812406015.0376,-11.757174,-66.361473,-43.893139,169.65863
4817042606.5163,-11.123052,-78.245224,-41.67918,129.96497
4821679197.995,-10.841307,-95.545059,-40.647141,67.360283
4826315789.4737,-11.385812,-114.82751,-43.813606,12.848579
4830952380.9524,-12.813215,-127.5653,-45.675411,6.3581061
4835588972.4311,-12.848574,-137.1935,-45.431026,-46.593811
4840225563.9098,-13.273571,-148.66454,-44.811184,-77.772339
4844862155.3885,-12.703106,-164.00842,-48.188866,-135.84399
4849498746.8672,-13.32767,173.73332,-63.48275,-5.0160041
4854135338.3459,-14.017602,157.09378,-44.849442,-95.207336
4858771929.8246,-14.925708,134.99631,-40.098701,-152.54208
4863408521.3033,-16.500309,116.10624,-38.186302,149.40742
4868045112.782,-17.780149,102.99036,-38.68581,95.796967
4872681704.2607,-18.52146,86.026741,-38.732025,53.250145
4877318295.7393,-18.631628,75.981155,-38.732452,-1.4520358
4881954887.218,-17.691362,58.199345,-42.65498,-54.747211
4886591478.6967,-17.414377,33.589489,-46.391766,-86.86441
4891228070.1754,-18.484131,18.812374,-48.434525,-91.350105
4895864661.6541,-18.447992,8.3643675,-46.407429,-133.79057
4900501253.1328,-17.291027,3.0374379,-46.67868,-166.08672
4905137844.6115,-15.722826,-14.373396,-52.969883,163.34067
4909774436.0902,-15.242342,-32.529259,-44.737812,172.10268
4914411027.5689,-14.467035,-46.793396,-42.56131,109.67535
4919047619.0476,-14.301422,-62.470276,-40.772213,60.873692
4923684210.5263,-14.053684,-77.737076,-41.328625,3.4580216
4928320802.005,-14.317299,-89.306816,-42.078075,-27.653542
4932957393.4837,-13.72672,-101.8688,-42.969025,-71.396927
4937593984.9624,-13.53877,-118.37707,-44.189579,-117.20558
4942230576.4411,-14.030918,-132.60291,-47.174885,-138.59688
4946867167.9198,-14.691784,-144.89597,-43.338337,-143.12061
4951503759.3985,-15.905139,-153.83406,-39.127884,172.83632
4956140350.8772,-15.210319,-155.9677,-37.726307,120.81059
4960776942.3559,-14.665212,-168.22475,-37.037216,69.675171
4965413533.8346,-14.042343,177.83632,-38.959648,24.210768
4970050125.3133,-13.962789,161.92282,-41.010838,-16.089203
4974686716.792,-14.170064,146.92087,-40.60865,-49.277386
4979323308.2707,-13.908285,133.87602,-42.491627,-90.582771
4983959899.7494,-14.179097,117.98918,-44.267246,-125.84627
4988596491.2281,-13.620808,105.17663,-46.02282,-131.7397
4993233082.7068,-12.699446,83.082672,-45.805435,-161.26871
4997869674.1855,-12.744141,59.661251,-42.483582,174.66345
5002506265.6642,-12.839914,-66.936943,-39.963188,127.36365
5007142857.1429,-13.080659,-91.289528,-39.703438,94.511711
5011779448.6216,-13.667176,-109.88351,-39.437923,47.156116
5016416040.1003,-14.085401,-129.52827,-37.735767,-5.0481629
5021052631.5789,-14.832515,-143.72353,-38.690529,-56.534977
5025689223.0576,-14.554884,-158.85255,-42.589218,-106.24435
5030325814.5363,-14.559332,-176.13585,-43.689854,-137.73006
5034962406.015,-14.28615,169.27939,-46.296989,-169.83244
5039598997.4937,-14.101962,150.25217,-49.26878,142.67409
5044235588.9724,-14.399796,134.72458,-51.101799,156.49966
5048872180.4511,-14.365386,119.98926,-49.462795,150.13513
5053508771.9298,-13.952809,105.33418,-45.372181,107.55805
5058145363.4085,-13.425882,91.675591,-45.822941,63.935402
5062781954.8872,-12.422395,72.961044,-43.379864,26.152161
5067418546.3659,-12.06866,50.778698,-47.165844,-23.752537
5072055137.8446,-11.885519,33.461906,-50.105774,-52.089687
5076691729.3233,-11.878044,17.34384,-44.630104,-44.246655
5081328320.802,-11.540697,-1.6822789,-43.199604,-102.13395
5085964912.2807,-11.324697,-19.554573,-45.454899,-155.64935
5090601503.7594,-11.035476,-34.930447,-46.904202,169.58418
5095238095.2381,-10.708564,-54.854237,-47.15321,127.24806
5099874686.7168,-10.921882,-71.059486,-52.278225,90.216537
5104511278.1955,-10.925417,-87.351784,-49.54137,58.495708
5109147869.6742,-11.09152,-102.37666,-51.119312,-12.88501
5113784461.1529,-11.016887,-116.49178,-54.106869,-105.34174
5118421052.6316,-10.85839,-132.25433,-57.004013,83.364426
5123057644.1103,-11.457355,-147.47049,-51.505829,-24.762619
5127694235.589,-11.123027,-161.40681,-48.880707,-121.83769
5132330827.0677,-11.210065,-176.52849,-55.01746,137.12845
5136967418.5464,-11.739036,166.65018,-54.285919,-154.04524
5141604010.0251,-12.235464,154.91008,-48.858841,152.35374
5146240601.5038,-12.083365,139.90536,-46.091621,84.949867
5150877192.9825,-12.005994,123.53049,-46.08287,33.459602
5155513784.4612,-12.404628,101.36005,-46.376083,-12.5824
5160150375.9398,-13.340221,83.969643,-47.417976,-74.278358
5164786967.4185,-13.613525,64.489822,-54.698177,-64.633736
5169423558.8972,-14.476315,41.855839,-44.633602,-91.96917
5174060150.3759,-14.995708,24.899717,-42.761429,-171.26611
5178696741.8546,-14.671392,6.1935406,-46.440022,104.18129
5183333333.3333,-14.416438,-15.026978,-52.095333,81.691452
5187969924.812,-13.711502,-40.590225,-54.389145,-48.500523
5192606516.2907,-13.928839,-62.594715,-51.66114,158.79744
5197243107.7694,-14.20797,-80.813133,-47.268616,90.507927
5201879699.2481,-13.746742,-94.948425,-46.704735,29.236414
5206516290.7268,-14.05588,-111.73092,-44.820042,2.8599806
5211152882.2055,-13.68569,-122.69387,-41.577194,-51.378601
5215789473.6842,-13.148175,-138.45403,-43.608337,-111.60227
5220426065.1629,-13.269902,-151.19382,-42.692162,-145.67738
5225062656.6416,-12.749107,-162.24867,-43.063507,152.11606
5229699248.1203,-12.595708,-179.66098,-46.236389,120.36909
5234335839.599,-13.2609,169.33669,-46.128487,86.280022
5238972431.0777,-13.38422,158.55373,-49.515507,57.684963
5243609022.5564,-12.985605,146.42082,-49.044243,38.756363
5248245614.0351,-13.108068,129.9894,-49.234501,39.99548
5252882205.5138,-13.675225,114.91098,-43.681625,-8.252923
5257518796.9925,-14.428602,95.423012,-42.750191,-58.747169
5262155388.4712,-16.081215,75.608704,-44.309387,-101.33469
5266791979.9499,-18.262995,60.842651,-43.055626,-119.7184
5271428571.4286,-19.937841,41.81538,-41.085163,-166.20882
5276065162.9073,-22.586576,19.58103,-42.331276,134.46143
5280701754.386,-24.081259,-3.1662669,-45.121254,103.04024
5285338345.8647,-24.609999,-44.032635,-44.388302,94.459274
5289974937.3434,-24.699387,-84.986099,-43.89724,43.014839
5294611528.8221,-23.748035,-123.30729,-44.80386,11.64802
5299248120.3008,-23.354975,-141.10211,-44.270123,-28.5126
5303884711.7794,-23.052197,-152.84679,-45.529819,-65.789848
5308521303.2581,-22.010174,-162.30038,-43.210403,-104.992
5313157894.7368,-21.042177,-166.76714,-49.3377,-164.36786
5317794486.2155,-19.778778,177.85077,-47.497517,-162.21152
5322431077.6942,-19.435423,174.63484,-47.729778,165.5033
5327067669.1729,-18.743601,159.62492,-44.788055,114.00219
5331704260.6516,-17.927822,152.67256,-51.996929,87.666618
5336340852.1303,-17.144474,140.78722,-47.489185,75.157143
5340977443.609,-17.146313,125.38013,-43.202,37.323586
5345614035.0877,-16.728483,107.93758,-41.161373,-15.900723
5350250626.5664,-19.023993,86.97142,-41.242519,-69.212608
5354887218.0451,-21.710947,69.094406,-42.686478,-116.31651
5359523809.5238,-26.649246,71.036423,-44.185341,-135.10976
5364160401.0025,-30.347176,68.399307,-41.449074,-161.48848
5368796992.4812,-35.200645,76.638046,-38.530739,141.24281
5373433583.9599,-35.928432,172.73044,-42.029625,84.440903
5378070175.4386,-32.297512,178.68515,-44.528324,58.246181
5382706766.9173,-24.654987,-174.89352,-43.174145,22.423836
5387343358.396,-20.987633,163.75912,-46.016319,-21.118986
5391979949.8747,-20.431328,143.68794,-46.172348,-33.715218
5396616541.3534,-21.397402,124.39311,-45.739555,-80.953735
5401253132.8321,-23.043116,129.69807,-51.896809,-102.66517
5405889724.3108,-22.826452,133.87402,-42.490467,-99.276924
5410526315.7895,-21.040825,134.74092,-41.068836,-174.50659
5415162907.2682,-19.330648,123.99583,-42.39843,138.35747
5419799498.7469,-19.845819,115.27709,-47.583073,101.45853
5424436090.2256,-20.067703,113.06805,-43.936558,79.605339
5429072681.7043,-18.788845,109.9918,-45.372929,24.619621
5433709273.183,-17.698406,99.422974,-51.900532,-4.295259
5438345864.6617,-17.875313,83.182129,-49.326138,-2.7915061
5442982456.1404,-18.442209,68.662689,-48.917831,-39.167103
5447619047.619,-19.451126,57.295025,-52.853966,-63.329441
5452255639.0977,-20.872793,39.611214,-44.59169,-81.72319
5456892230.5764,-23.827101,27.413321,-43.716747,-131.19156
5461528822.0551,-31.38765,28.070381,-42.163589,-176.35796
5466165413.5338,-30.172371,74.490669,-44.054848,129.53812
5470802005.0125,-34.206623,96.372604,-45.683758,84.190849
5475438596.4912,-27.443506,103.49268,-49.340935,77.988892
5480075187.9699,-25.876057,110.83113,-44.645519,51.270138
5484711779.4486,-22.393944,103.24391,-48.089493,-17.294281
5489348370.9273,-20.659103,78.342964,-47.301731,0.72250426
5493984962.406,-22.801973,62.058224,-44.330109,-73.952415
5498621553.8847,-23.629683,61.325367,-49.343288,-92.037971
5503258145.3634,-22.927626,58.230965,-51.232681,-146.31549
5507894736.8421,-22.86025,54.816467,-47.663387,-137.6306
5512531328.3208,-21.530035,30.214811,-45.401741,177.71608
5517167919.7995,-25.782709,12.095684,-45.499027,127.18851
5521804511.2782,-27.373001,24.231504,-44.141991,73.915581
5526441102.7569,-28.360664,24.853971,-48.576321,28.798615
