Freq(Hz),S21(DB),S21(DEG),"""a1,1""(DB)","""a1,1""(DEG)","""b2,1""(DB)","""b2,1""(DEG)"
4000000000,-25.993101,32.271587,16.207508,-75.871391,-9.785594,-43.599796
4005000000,-26.150541,-7.2195587,16.199638,-76.659821,-9.9509039,-83.879379
4010000000,-26.350039,-41.428654,16.183466,-77.253922,-10.166572,-118.68257
4015000000,-26.736908,-74.77932,16.154772,-77.661438,-10.582136,-152.44075
4020000000,-26.037859,-109.58552,16.130106,-77.908943,-9.9077549,172.50554
4025000000,-26.000277,-146.15741,16.121521,-78.051933,-9.8787556,135.79065
4030000000,-25.584044,-178.69891,16.127228,-78.525299,-9.4568167,102.77579
4035000000,-24.851095,140.29659,16.144192,-78.909378,-8.7069035,61.387207
4040000000,-25.217943,102.7951,16.167553,-79.458939,-9.0503912,23.336166
4045000000,-25.206501,63.202179,16.195465,-79.857567,-9.0110369,-16.655384
4050000000,-25.479736,26.714979,16.216015,-80.295532,-9.2637205,-53.580559
4055000000,-26.069382,-8.8906441,16.221893,-81.11113,-9.8474874,-90.00177
4060000000,-25.881491,-41.597004,16.2146,-81.680862,-9.6668911,-123.27785
4065000000,-25.543972,-79.256287,16.20755,-82.200912,-9.336421,-161.45718
4070000000,-26.175093,-116.92556,16.191031,-82.662437,-9.9840641,160.412
4075000000,-26.124182,-150.39124,16.184113,-82.878693,-9.9400692,126.73009
4080000000,-26.147598,174.58002,16.183529,-83.455856,-9.9640684,91.124168
4085000000,-25.979107,139.65759,16.190044,-83.935005,-9.7890615,55.722591
4090000000,-26.258997,102.78609,16.194868,-84.519371,-10.06413,18.266724
4095000000,-25.986269,66.24633,16.198824,-85.091385,-9.787446,-18.845057
4100000000,-26.484438,30.709118,16.197086,-85.360626,-10.287351,-54.651508
4105000000,-26.704163,-3.4611917,16.187469,-86.260719,-10.516692,-89.721916
4110000000,-26.542442,-35.923161,16.166231,-86.811989,-10.376213,-122.73515
4115000000,-26.129612,-72.52919,16.146379,-87.208908,-9.9832335,-159.7381
4120000000,-26.37591,-105.82566,16.139475,-87.548714,-10.236433,166.62564
4125000000,-25.58489,-142.42371,16.149633,-87.786278,-9.435256,129.79001
4130000000,-25.581347,177.66824,16.191959,-88.436111,-9.3893881,89.232147
4135000000,-25.770382,143.7411,16.24604,-89.006325,-9.5243425,54.734772
4140000000,-25.93457,106.82111,16.291365,-89.608261,-9.6432037,17.212852
4145000000,-25.805847,72.818115,16.31798,-90.320511,-9.4878664,-17.502398
4150000000,-25.735273,36.149666,16.316025,-90.762665,-9.4192476,-54.613003
4155000000,-25.727896,1.9232351,16.295292,-91.510132,-9.4326038,-89.586899
4160000000,-25.302423,-33.564678,16.268131,-91.903633,-9.0342932,-125.46831
4165000000,-25.49774,-74.823738,16.255972,-92.155167,-9.2417669,-166.97891
4170000000,-25.746084,-110.7953,16.259443,-92.321625,-9.4866409,156.88309
4175000000,-26.080303,-145.33412,16.28207,-92.468018,-9.7982321,122.19786
4180000000,-26.458261,177.96959,16.322121,-93.127136,-10.13614,84.842453
4185000000,-26.502625,147.28925,16.377182,-93.580414,-10.125443,53.708839
4190000000,-26.225784,112.28946,16.428295,-94.071602,-9.7974901,18.217857
4195000000,-26.348761,76.161476,16.461422,-94.744591,-9.8873377,-18.583124
4200000000,-26.211729,42.628521,16.460594,-95.138931,-9.7511339,-52.510406
4205000000,-25.924086,4.1796975,16.44058,-96.082161,-9.4835043,-91.902473
4210000000,-26.310856,-33.568241,16.405178,-96.606064,-9.9056759,-130.1743
4215000000,-26.519012,-65.705086,16.369041,-97.013458,-10.149971,-162.71855
4220000000,-26.454813,-99.890968,16.339773,-97.273643,-10.115039,162.83539
4225000000,-26.223852,-134.81424,16.315933,-97.315445,-9.9079199,127.87032
4230000000,-26.178259,-172.73218,16.304146,-97.693207,-9.874114,89.574615
4235000000,-26.272697,154.64896,16.302706,-97.839279,-9.9699907,56.809677
4240000000,-25.932102,118.13226,16.298252,-97.959511,-9.6338501,20.172758
4245000000,-25.977806,80.583389,16.303226,-98.128616,-9.6745787,-17.545227
4250000000,-26.054399,45.791527,16.312855,-98.071411,-9.7415438,-52.279888
4255000000,-26.048866,10.907907,16.320446,-98.543419,-9.7284203,-87.635506
4260000000,-26.021091,-22.3083,16.330477,-98.838257,-9.6906157,-121.14656
4265000000,-25.413898,-58.342617,16.353676,-99.145004,-9.0602236,-157.48763
4270000000,-25.282469,-98.695908,16.398293,-99.416328,-8.8841763,161.88777
4275000000,-25.490215,-134.77559,16.444775,-99.780197,-9.0454407,125.44421
4280000000,-25.724688,-171.70526,16.486057,-100.44616,-9.2386293,87.848587
4285000000,-25.969242,152.39977,16.521818,-101.11731,-9.4474249,51.282463
4290000000,-26.206379,118.31348,16.534378,-101.87653,-9.6720009,16.436937
4295000000,-26.406219,84.673347,16.528189,-102.70421,-9.8780308,-18.030865
4300000000,-26.025856,50.347809,16.494957,-103.22349,-9.5309,-52.875683
4305000000,-25.965782,12.340638,16.448229,-103.9507,-9.5175524,-91.610062
4310000000,-26.252798,-24.01029,16.395054,-104.495,-9.8577452,-128.50528
4315000000,-26.565727,-56.650421,16.335238,-11.092831,-10.230489,-67.743248
4320000000,-26.529375,-94.007706,16.288286,-11.253023,-10.241089,-105.26073
4325000000,-26.905212,-125.95376,16.250788,-11.159907,-10.654425,-137.11366
4330000000,-26.918365,-159.38593,16.235783,-11.47922,-10.682583,-170.86513
4335000000,-26.480463,169.66449,16.239761,-11.440373,-10.240704,158.22412
4340000000,-25.993816,132.59367,16.272245,-11.64926,-9.72157,120.94441
4345000000,-26.128233,95.079865,16.305231,-11.944487,-9.823,83.135376
4350000000,-25.716814,59.94437,16.332304,-12.343088,-9.384511,47.601284
4355000000,-26.303394,23.993086,16.355801,-13.085762,-9.9475937,10.907322
4360000000,-25.919422,-11.037728,16.361982,-13.511728,-9.5574398,-24.549458
4365000000,-25.799719,-47.128593,16.362627,-13.911918,-9.4370918,-61.040508
4370000000,-25.896868,-84.21537,16.36758,-14.252935,-9.5292883,-98.468307
4375000000,-26.0399,-120.22521,16.395418,-14.436824,-9.6444807,-134.66203
4380000000,-26.278627,-153.12477,16.438784,-15.051934,-9.8398447,-168.1767
4385000000,-26.094463,173.10143,16.492155,-15.736686,-9.6023083,157.36473
4390000000,-25.473404,137.17155,16.534204,-16.568195,-8.9391994,120.60336
4395000000,-25.307753,97.773705,16.546766,-17.474043,-8.7609863,80.29966
4400000000,-25.56201,59.22332,16.53738,-18.063864,-9.0246296,41.159462
4405000000,-26.045248,22.351551,16.494673,-18.994287,-9.5505743,3.3572636
4410000000,-26.364845,-12.244332,16.441866,-19.570196,-9.9229803,-31.814529
4415000000,-26.543045,-43.172245,16.37887,-19.883211,-10.164175,-63.055454
4420000000,-25.98061,-79.265266,16.326273,-20.096546,-9.6543379,-99.361809
4425000000,-25.897932,-114.97786,16.292934,-20.011448,-9.6049967,-134.98932
4430000000,-25.922834,-154.79922,16.271566,-20.425745,-9.651268,-175.22496
4435000000,-26.062599,168.17435,16.272671,-20.763609,-9.7899284,147.41075
4440000000,-26.894266,132.67969,16.280863,-21.109463,-10.613405,111.57023
4445000000,-27.23448,100.7411,16.284159,-21.476353,-10.950322,79.264748
4450000000,-27.056143,69.540131,16.289413,-21.676239,-10.766728,47.863892
4455000000,-26.476166,34.171616,16.276237,-22.316402,-10.199929,11.855211
4460000000,-26.472639,-2.1912632,16.265368,-22.484179,-10.207271,-24.675442
4465000000,-26.617579,-39.113678,16.278139,-22.596079,-10.339439,-61.709763
4470000000,-26.782652,-70.884262,16.311268,-22.773209,-10.471383,-93.657471
4475000000,-26.412811,-107.51366,16.368332,-22.893171,-10.04448,-130.40683
4480000000,-26.950256,-143.19812,16.434597,-23.518993,-10.515658,-166.7171
4485000000,-26.829498,-174.62483,16.51461,-24.149784,-10.314887,161.22537
4490000000,-26.515062,150.06039,16.575966,-25.058399,-9.9390965,125.002
4495000000,-26.238894,115.17529,16.608624,-26.145609,-9.630271,89.029686
4500000000,-25.931057,79.541634,16.605186,-26.967474,-9.3258724,52.574154
4505000000,-25.759182,43.15662,16.553492,-27.904371,-9.2056904,15.252246
4510000000,-25.548458,5.9513063,16.481983,-28.494864,-9.0664749,-22.543554
4515000000,-25.855698,-32.036449,16.40724,-28.964985,-9.4484577,-61.001438
4520000000,-25.802023,-67.24231,16.339046,-29.245577,-9.4629765,-96.487892
4525000000,-26.235313,-102.17738,16.292248,-29.314936,-9.9430666,-131.49232
4530000000,-26.043686,-136.36298,16.264435,-29.684921,-9.7792492,-166.0479
4535000000,-25.895348,-172.9451,16.257233,-30.069977,-9.638114,156.98494
4540000000,-25.890549,149.3192,16.256428,-30.29583,-9.6341219,119.02337
4545000000,-26.245022,112.35242,16.261295,-30.550535,-9.9837255,81.801888
4550000000,-26.610281,76.002068,16.269728,-30.761414,-10.340552,45.240654
4555000000,-27.294973,42.652729,16.274733,-31.211079,-11.020241,11.441649
4560000000,-27.401308,9.6590195,16.292974,-31.483345,-11.108335,-21.824324
4565000000,-27.496723,-22.768948,16.327915,-31.863482,-11.168807,-54.632431
4570000000,-27.186764,-53.715412,16.371529,-32.35693,-10.815235,-86.072334
4575000000,-26.649998,-88.918465,16.415581,-32.817959,-10.234416,-121.73643
4580000000,-26.579489,-126.28234,16.475157,-33.670704,-10.104333,-159.95305
4585000000,-26.187979,-160.57294,16.53618,-34.426151,-9.6517963,165.00092
4590000000,-26.216204,161.0584,16.572792,-35.396038,-9.6434116,125.66235
4595000000,-26.643303,128.13762,16.57773,-36.309086,-10.065572,91.828537
4600000000,-26.40947,91.849838,16.555309,-37.06609,-9.8541603,54.783745
4605000000,-26.362427,59.710827,16.511768,-37.939529,-9.8506575,21.771296
4610000000,-25.73547,25.179453,16.445829,-38.55864,-9.2896395,-13.379185
4615000000,-25.34449,-15.366878,16.379169,-38.884998,-8.9653196,-54.251873
4620000000,-25.673838,-52.867828,16.341993,-38.941578,-9.3318443,-91.809402
4625000000,-25.949059,-88.8526,16.320154,-38.890018,-9.6289043,-127.74261
4630000000,-26.256733,-125.58591,16.328651,-39.113876,-9.9280796,-164.69978
4635000000,-26.852215,-160.70868,16.353823,-39.318584,-10.498392,159.97275
4640000000,-27.219585,168.93951,16.400747,-39.577492,-10.818838,129.36201
4645000000,-26.952599,139.07678,16.453684,-39.983719,-10.498915,99.093056
4650000000,-26.159115,103.93091,16.495514,-40.408825,-9.6636028,63.522083
4655000000,-25.950277,65.724968,16.520733,-41.177692,-9.4295435,24.547274
4660000000,-26.032301,29.721777,16.532181,-41.708797,-9.5001221,-11.987023
4665000000,-26.134659,-4.2701035,16.533083,-42.247875,-9.6015759,-46.517982
4670000000,-26.076656,-39.088562,16.535772,-42.604328,-9.5408859,-81.692894
4675000000,-25.820898,-73.092865,16.549398,-42.869202,-9.2715006,-115.96207
4680000000,-25.544973,-108.59294,16.578417,-43.436142,-8.9665565,-152.02908
4685000000,-25.630344,-146.03481,16.607517,-43.986263,-9.0228281,169.97893
4690000000,-25.631966,-179.33594,16.639671,-44.637833,-8.9922943,136.02623
4695000000,-24.811806,144.46361,16.649937,-45.241138,-8.161869,99.222473
4700000000,-24.900248,105.35817,16.646984,-45.796616,-8.2532635,59.56155
4705000000,-25.059566,66.940666,16.607645,-46.656765,-8.4519215,20.283907
4710000000,-25.394894,31.439894,16.569172,-47.239353,-8.8257208,-15.79946
4715000000,-25.6632,-2.208925,16.537062,-47.587818,-9.1261387,-49.796741
4720000000,-25.695633,-37.321396,16.526665,-47.784431,-9.1689682,-85.105827
4725000000,-25.531824,-71.763199,16.528118,-48.058815,-9.003706,-119.82202
4730000000,-25.423237,-106.32463,16.556849,-48.484039,-8.8663893,-154.80869
4735000000,-25.114935,-143.99834,16.603247,-49.10236,-8.5116892,166.89931
4740000000,-25.322186,178.81155,16.643589,-49.880795,-8.6785965,128.93076
4745000000,-25.635475,143.04698,16.669796,-50.693695,-8.9656801,92.353279
4750000000,-25.909109,108.36521,16.667183,-51.389359,-9.2419252,56.975857
4755000000,-26.258139,74.509361,16.639711,-52.287407,-9.6184273,22.221956
4760000000,-26.320467,40.511349,16.591963,-52.889328,-9.7285061,-12.377983
4765000000,-26.462879,9.6933146,16.53826,-53.309181,-9.9246197,-43.615864
4770000000,-25.871756,-22.782076,16.49226,-53.57523,-9.3794956,-76.3573
4775000000,-25.590988,-58.280708,16.46896,-53.800182,-9.1220274,-112.08089
4780000000,-25.130201,-93.161278,16.480005,-54.150173,-8.6501951,-147.31146
4785000000,-24.915577,-131.02843,16.510885,-54.511398,-8.4046917,174.46017
4790000000,-25.012358,-167.97499,16.557079,-54.738785,-8.4552784,137.28621
4795000000,-24.967545,158.32448,16.595018,-55.331299,-8.3725262,102.99319
4800000000,-24.772373,122.77089,16.618521,-55.953083,-8.1538534,66.817818
4805000000,-24.563993,87.611168,16.623518,-56.524509,-7.9404774,31.086657
4810000000,-24.236006,50.05423,16.609375,-57.06319,-7.6266313,-7.0089645
4815000000,-24.288036,12.988048,16.585184,-57.434448,-7.7028518,-44.4464
4820000000,-24.4251,-23.863754,16.5781,-57.766857,-7.8470001,-81.630615
4825000000,-24.535295,-59.31456,16.594654,-58.055653,-7.9406419,-117.37022
4830000000,-24.504118,-93.761841,16.629362,-58.625599,-7.8747582,-152.38744
4835000000,-24.147717,-131.03964,16.671812,-59.125381,-7.475904,169.83498
4840000000,-24.302174,-169.68323,16.694641,-59.777145,-7.6075325,130.53963
4845000000,-24.634409,153.05524,16.701597,-60.579468,-7.9328136,92.475777
4850000000,-25.130846,118.04655,16.676497,-61.240322,-8.4543495,56.806225
4855000000,-25.239603,83.676033,16.629536,-61.750465,-8.6100664,21.925571
4860000000,-25.584007,49.781696,16.571743,-62.136036,-9.0122652,-12.354338
4865000000,-25.483027,17.634995,16.510448,-62.378868,-8.9725771,-44.743877
4870000000,-25.240057,-16.880953,16.473997,-62.490223,-8.7660599,-79.37117
4875000000,-24.936506,-53.993259,16.463205,-62.497501,-8.4733009,-116.49076
4880000000,-25.133619,-89.281723,16.477903,-62.618572,-8.655715,-151.9003
4885000000,-25.101028,-126.25688,16.507509,-62.927605,-8.5935192,170.81551
4890000000,-25.561665,-160.20743,16.545052,-63.482735,-9.0166111,136.30983
4895000000,-25.249632,166.36794,16.57464,-63.966217,-8.6749916,102.40172
4900000000,-25.354786,130.95741,16.586388,-64.374207,-8.7684002,66.583214
4905000000,-25.413082,97.359421,16.574497,-65.091034,-8.8385839,32.268391
4910000000,-25.08337,63.388451,16.548622,-65.581558,-8.5347481,-2.1931095
4915000000,-24.914579,27.73761,16.531057,-65.992645,-8.383522,-38.255032
4920000000,-24.738216,-7.3663735,16.523426,-66.289017,-8.2147903,-73.655388
4925000000,-24.709929,-45.014729,16.540751,-66.538017,-8.169179,-111.55274
4930000000,-24.731976,-81.162384,16.590548,-67.034485,-8.1414289,-148.19687
4935000000,-24.782984,-114.59153,16.655205,-67.650269,-8.1277771,177.75821
4940000000,-24.79591,-151.29184,16.715952,-68.573067,-8.0799589,140.13512
4945000000,-24.721848,173.56932,16.748856,-69.479034,-7.9729919,104.09027
4950000000,-24.792374,136.83394,16.742605,-70.353439,-8.0497684,66.480499
4955000000,-24.994242,101.28902,16.714022,-71.115555,-8.28022,30.173475
4960000000,-25.19171,66.459152,16.66399,-71.900429,-8.5277205,-5.4412732
4965000000,-25.352331,31.883492,16.590038,-72.466156,-8.7622919,-40.582668
4970000000,-25.157305,-1.4063988,16.520409,-72.761581,-8.6368971,-74.167984
4975000000,-24.933727,-38.118027,16.479078,-72.854324,-8.4546499,-110.97235
4980000000,-25.190487,-74.096611,16.468531,-73.147713,-8.7219572,-147.24432
4985000000,-25.054781,-110.0426,16.4713,-73.423218,-8.5834808,176.53419
4990000000,-25.175272,-146.20392,16.474684,-73.738701,-8.7005873,140.05737
4995000000,-25.706673,176.59485,16.47221,-73.93882,-9.2344637,102.65602
5000000000,-25.847046,144.9406,16.478216,-74.262344,-9.3688307,70.678246
END,,,,,,