Freq(Hz),S21(DB),S21(DEG),"""a1,1""(DB)","""a1,1""(DEG)","""b2,1""(DB)","""b2,1""(DEG)"
4000000000,-23.093273,8.004878,16.198372,-1.0972377,-10.027775,31.182508
4005000000,-23.053099,-15.154554,16.190893,-1.3474132,-9.9963303,-7.7579784
4010000000,-23.313023,-34.662289,16.175861,-1.6637839,-10.221571,-43.303234
4015000000,-23.615782,-51.686626,16.147457,-1.9605476,-10.59056,-76.114731
4020000000,-22.858315,-70.417244,16.123434,-2.0937731,-9.8528461,-110.64992
4025000000,-22.903521,-91.485069,16.115389,-1.9194475,-9.8378916,-147.25244
4030000000,-22.468241,-109.06319,16.122931,-1.6379385,-9.3795996,179.45634
4035000000,-21.769493,-134.78941,16.139833,-1.331987,-8.7196703,138.39693
4040000000,-22.240685,-156.2372,16.163252,-1.0438138,-9.1400099,101.41666
4045000000,-22.289038,-179.44316,16.190819,-0.83177698,-9.1567192,62.746239
4050000000,-22.533026,159.96658,16.211334,-0.77318746,-9.4166641,26.542143
4055000000,-23.049223,140.72639,16.219133,-0.85101599,-9.8754492,-8.5310974
4060000000,-22.831196,123.28954,16.211765,-1.0405158,-9.6847582,-41.939926
4065000000,-22.440865,101.17481,16.204708,-1.1745341,-9.2876863,-79.858887
4070000000,-23.101566,79.868881,16.189014,-1.3194551,-9.9320431,-117.28946
4075000000,-23.007524,61.299255,16.181566,-1.3650206,-9.8591003,-151.6481
4080000000,-22.959589,42.036156,16.180597,-1.3243383,-9.8041763,173.09972
4085000000,-22.997179,21.75721,16.188934,-1.2714896,-9.8615274,137.32166
4090000000,-23.362692,2.6873198,16.192051,-1.3314437,-10.265595,102.0963
4095000000,-22.774895,-17.132547,16.197575,-1.3917539,-9.7248363,66.456848
4100000000,-23.22658,-38.766727,16.195938,-1.5378377,-10.197402,29.238722
4105000000,-23.536232,-57.068989,16.186382,-1.7266172,-10.512965,-5.0631227
4110000000,-23.411448,-73.885857,16.164648,-1.9337231,-10.443202,-37.045383
4115000000,-22.876802,-95.520897,16.145054,-1.9754798,-9.9491892,-74.084389
4120000000,-22.989567,-112.8306,16.138107,-1.9042877,-10.027401,-107.19274
4125000000,-22.408195,-134.38431,16.148537,-1.657524,-9.4707422,-144.14738
4130000000,-22.519428,-159.02484,16.191366,-1.2995329,-9.5100832,176.21277
4135000000,-22.673515,-176.40141,16.245104,-1.0139806,-9.5796175,143.1662
4140000000,-22.913288,161.72496,16.290867,-0.84079146,-9.7192307,105.83166
4145000000,-22.872526,144.24879,16.316984,-0.92487508,-9.6107483,72.665756
4150000000,-22.700214,124.70437,16.315521,-1.2143148,-9.4286699,36.779755
4155000000,-22.519482,104.90988,16.295568,-1.5711678,-9.2606277,0.90617114
4160000000,-22.202446,84.054291,16.267311,-1.9035813,-8.9779177,-36.468723
4165000000,-22.561274,59.170605,16.255941,-1.9542522,-9.3751202,-76.879677
4170000000,-22.705086,38.944267,16.259956,-1.8471777,-9.5041161,-112.61873
4175000000,-23.194923,21.346054,16.281382,-1.5966313,-9.9732304,-146.01706
4180000000,-23.368057,0.75975019,16.322071,-1.2195044,-10.167555,177.96643
4185000000,-23.158241,-15.075107,16.378035,-0.77648127,-9.9440317,146.81432
4190000000,-23.128092,-34.427006,16.428511,-0.49090976,-9.8915482,112.16097
4195000000,-23.086578,-54.398773,16.460938,-0.43023953,-9.8354778,76.286057
4200000000,-23.101749,-73.024719,16.460722,-0.65477967,-9.8540554,41.871384
4205000000,-22.768848,-95.769341,16.440475,-1.0457277,-9.5092373,3.8690398
4210000000,-22.984364,-117.19753,16.406391,-1.5665923,-9.8317137,-33.902355
4215000000,-23.364105,-135.23096,16.370689,-2.0638833,-10.144956,-67.977882
4220000000,-23.209278,-153.23746,16.339865,-2.4803214,-10.012794,-102.07924
4225000000,-23.092819,-172.55904,16.315168,-2.6455102,-9.8848534,-137.53845
4230000000,-23.129215,165.84015,16.30444,-2.5986154,-9.9229116,-174.71251
4235000000,-23.119703,148.61633,16.30419,-2.417064,-9.9294548,152.22606
4240000000,-22.870455,126.88751,16.299889,-2.2388146,-9.6675014,114.95394
4245000000,-22.986935,106.18386,16.303755,-2.0045338,-9.8120146,78.449753
4250000000,-23.026081,86.981064,16.312979,-1.7620538,-9.8881769,44.088799
4255000000,-23.112782,69.021866,16.32011,-1.5790285,-9.9749851,10.432595
4260000000,-22.994143,51.921654,16.330956,-1.3510367,-9.8628893,-21.929531
4265000000,-22.252729,31.326855,16.35552,-1.0216693,-9.0562658,-57.970413
4270000000,-22.049162,6.2824936,16.399595,-0.55617142,-8.86765,-97.885986
4275000000,-22.276327,-14.633491,16.446402,-0.15875271,-9.0123825,-134.02505
4280000000,-22.478291,-36.018539,16.48559,0.1375438,-9.139905,-170.73799
4285000000,-22.770716,-56.165417,16.52146,0.32623771,-9.3697186,153.27013
4290000000,-22.958481,-74.722588,16.535528,0.18146342,-9.5675802,118.75064
4295000000,-23.109426,-92.872856,16.5289,-0.229591,-9.7063122,84.478653
4300000000,-22.936144,-111.90047,16.495262,-0.9345876,-9.5527687,48.822258
4305000000,-22.855324,-133.08684,16.449036,-1.7353883,-9.5406666,10.987533
4310000000,-23.154751,-154.27493,16.395182,-2.4427049,-9.9343643,-26.78311
4315000000,-23.422136,-171.35995,16.337543,-2.9348805,-10.26693,-59.909748
4320000000,-23.55267,167.17291,16.289862,-3.1639559,-10.414627,-97.373619
4325000000,-23.831125,151.69237,16.252041,-3.0956957,-10.761647,-128.51915
4330000000,-23.881777,135.02895,16.236738,-2.8062351,-10.847429,-160.67625
4335000000,-23.12821,119.27971,16.23975,-2.3452551,-10.203407,168.53705
4340000000,-22.720079,98.303299,16.273369,-1.8282593,-9.6789961,132.13905
4345000000,-22.723085,75.391632,16.307673,-1.5065379,-9.7240868,94.075157
4350000000,-22.340221,55.998505,16.335058,-1.3014174,-9.3048782,59.411404
4355000000,-22.798307,34.772518,16.357367,-1.1926506,-9.7756863,22.842461
4360000000,-22.561571,14.211157,16.363529,-1.1283596,-9.4841824,-12.925317
4365000000,-22.64732,-5.4421706,16.363554,-1.034306,-9.5354605,-47.997639
4370000000,-22.650425,-26.445118,16.369423,-0.7840302,-9.5189571,-84.921402
4375000000,-22.81941,-47.466373,16.396048,-0.40375578,-9.6431217,-120.98626
4380000000,-23.224134,-65.309677,16.440033,-0.024927529,-9.9669123,-154.22623
4385000000,-23.166744,-80.778847,16.492954,0.25602812,-9.8764668,174.70309
4390000000,-22.358913,-100.80743,16.534962,0.20833525,-8.971303,138.75342
4395000000,-22.226213,-125.17405,16.546501,-0.11041436,-8.8542786,98.394287
4400000000,-22.450153,-146.95744,16.538204,-0.60915518,-9.0783453,60.284698
4405000000,-22.795052,-168.22038,16.497059,-1.2627167,-9.4612808,22.458672
4410000000,-23.093626,172.64255,16.443216,-1.8949634,-9.8675327,-13.049049
4415000000,-23.135376,156.16016,16.379471,-2.4330745,-9.9640903,-45.685127
4420000000,-22.802349,136.39964,16.326841,-2.6568947,-9.6739235,-81.405479
4425000000,-22.633709,115.9896,16.293356,-2.6591096,-9.5093842,-117.88393
4430000000,-22.577934,92.144547,16.273491,-2.5947554,-9.4895411,-157.46861
4435000000,-22.858644,70.325523,16.274685,-2.4082553,-9.8258991,165.06419
4440000000,-23.649851,50.999454,16.282242,-2.2411125,-10.606451,130.16801
4445000000,-24.041798,35.161491,16.285427,-2.104135,-11.044053,98.564728
4450000000,-23.898233,19.309946,16.291218,-1.9271343,-10.921544,67.148079
4455000000,-23.28754,0.43884215,16.277988,-1.8951685,-10.303527,32.877392
4460000000,-23.143162,-20.650425,16.267515,-1.6790844,-10.24919,-3.2110527
4465000000,-23.187832,-41.571293,16.280527,-1.2643352,-10.295888,-39.212772
4470000000,-23.393984,-59.10014,16.313692,-0.75954127,-10.481515,-71.739418
4475000000,-23.074806,-79.66642,16.368134,-0.19674961,-10.06572,-107.09244
4480000000,-23.608109,-99.717606,16.434349,0.35742626,-10.451763,-142.21451
4485000000,-23.470692,-115.64804,16.516348,0.80898637,-10.261683,-173.47836
4490000000,-23.14924,-134.59225,16.578217,0.89859241,-9.8612452,151.96112
4495000000,-22.818153,-155.35504,16.610001,0.61107063,-9.4893618,115.20215
4500000000,-22.833389,-174.72713,16.60453,-0.033639226,-9.4204397,79.059593
4505000000,-22.601746,165.30675,16.553917,-0.94565648,-9.2505112,42.570377
4510000000,-22.448917,144.03064,16.483751,-1.8310224,-9.1036644,4.4138784
4515000000,-22.72134,122.05211,16.408678,-2.5450699,-9.4553537,-33.983566
4520000000,-22.699507,102.61818,16.34041,-2.9994428,-9.4904928,-69.866356
4525000000,-23.052681,83.897377,16.292973,-3.1428387,-9.9334173,-104.68653
4530000000,-22.856779,65.234253,16.265053,-3.0795305,-9.776825,-139.76993
4535000000,-22.714413,45.209442,16.258102,-2.828835,-9.7258854,-175.38658
4540000000,-22.662987,24.242126,16.257837,-2.5404496,-9.7280416,148.25272
4545000000,-22.787367,2.4046609,16.263302,-2.2168543,-9.9160089,111.12412
4550000000,-23.035669,-18.099525,16.271994,-1.9104067,-10.271601,75.874321
4555000000,-23.543814,-36.864532,16.277117,-1.63603,-10.813176,41.787521
4560000000,-23.741718,-55.563782,16.294533,-1.2806519,-11.031289,7.9758101
4565000000,-23.827454,-73.309074,16.328831,-0.88360268,-11.074762,-24.085798
4570000000,-23.759954,-88.884239,16.372261,-0.43489608,-10.87373,-54.71637
4575000000,-23.209061,-108.41907,16.418249,-0.0042417683,-10.263357,-89.041786
4580000000,-23.203709,-129.70999,16.476608,0.39823133,-10.157527,-125.22916
4585000000,-23.016232,-148.53452,16.536358,0.61872441,-9.795785,-159.61125
4590000000,-23.054539,-170.58022,16.573103,0.5070582,-9.7921772,162.22026
4595000000,-23.384535,172.70645,16.580025,0.078776978,-10.023293,129.19585
4600000000,-23.201719,152.45581,16.557451,-0.59947652,-9.8292608,92.629944
4605000000,-23.131792,135.78679,16.513371,-1.4695095,-9.7861814,58.723057
4610000000,-22.568075,117.21386,16.44772,-2.3390908,-9.2687016,23.408485
4615000000,-22.202261,92.37191,16.380228,-2.882448,-8.9324951,-17.952972
4620000000,-22.607809,70.948669,16.343657,-2.9976454,-9.4113712,-55.60915
4625000000,-22.868132,52.051929,16.321932,-2.8447726,-9.6378298,-90.561485
4630000000,-22.980076,31.009165,16.330029,-2.446687,-9.8371105,-127.6076
4635000000,-23.467386,12.150465,16.354572,-1.9614154,-10.468082,-161.72791
4640000000,-23.773373,-3.2974801,16.402061,-1.4487002,-10.720536,167.45393
4645000000,-23.418507,-18.138176,16.455458,-1.1290172,-10.411473,137.76079
4650000000,-22.624908,-38.128944,16.496046,-1.0125569,-9.7012138,102.55106
4655000000,-22.327799,-60.338226,16.521212,-1.0391061,-9.4671202,64.960457
4660000000,-22.49781,-81.572235,16.534401,-1.1025344,-9.6360493,28.616526
4665000000,-22.701651,-100.06532,16.535994,-1.2143836,-9.764204,-5.1062155
4670000000,-22.614801,-119.78104,16.537512,-1.1897894,-9.6383953,-38.86525
4675000000,-22.459269,-138.32542,16.549726,-1.0452489,-9.2360573,-73.055206
4680000000,-22.194902,-157.60835,16.578459,-0.82701594,-8.8474989,-108.92651
4685000000,-22.25371,-179.9194,16.609661,-0.70752591,-8.8618555,-146.40031
4690000000,-22.355309,162.0676,16.640902,-0.69095302,-8.962945,179.37967
4695000000,-21.712936,142.5804,16.651266,-0.89860958,-8.3008184,143.76729
4700000000,-21.739979,119.57399,16.646698,-1.201135,-8.3135738,104.36711
4705000000,-21.90103,97.952309,16.609814,-1.643231,-8.5640469,66.199402
4710000000,-22.177191,78.440201,16.572231,-1.9419675,-8.8255005,30.96493
4715000000,-22.397305,60.192455,16.539106,-2.0459719,-9.0286217,-3.5689209
4720000000,-22.386084,41.084637,16.526985,-1.8613737,-9.0738821,-38.554104
4725000000,-22.172316,21.501764,16.529417,-1.5280702,-8.8805428,-73.801147
4730000000,-22.257456,2.4683123,16.558538,-1.0656432,-8.9570179,-108.07267
4735000000,-21.956079,-18.160418,16.604605,-0.67013192,-8.6629868,-144.53676
4740000000,-22.028322,-39.921486,16.644337,-0.52544993,-8.7010593,178.6138
4745000000,-22.294104,-59.693512,16.67108,-0.60776985,-9.1245499,143.0298
4750000000,-22.530397,-78.87632,16.669418,-0.97579277,-9.2910557,108.58939
4755000000,-22.714476,-96.506943,16.642427,-1.5496669,-9.5794897,74.331505
4760000000,-22.655495,-115.17883,16.593576,-2.1180248,-9.5808716,39.444923
4765000000,-22.825912,-131.85312,16.5389,-2.5397332,-9.7709818,7.1695828
4770000000,-22.424524,-149.6907,16.494411,-2.7049863,-9.3782787,-26.03595
4775000000,-22.320856,-168.5088,16.471752,-2.5707555,-9.2216406,-60.394672
4780000000,-21.765825,172.03279,16.480698,-2.1653123,-8.6757011,-95.14064
4785000000,-21.664305,150.59467,16.511259,-1.6889672,-8.4734678,-131.97879
4790000000,-21.715401,129.53906,16.558138,-1.2442788,-8.474925,-168.02824
4795000000,-21.64019,111.12868,16.598072,-1.0377861,-8.3004599,157.60808
4800000000,-21.400043,91.41188,16.620268,-1.0388603,-8.1080608,121.49895
4805000000,-21.21151,71.369545,16.624283,-1.1306243,-7.9931002,85.972061
4810000000,-21.046518,49.36742,16.610809,-1.3546798,-7.8126688,48.840557
4815000000,-21.19912,28.698126,16.588329,-1.5163383,-7.900682,12.154298
4820000000,-21.280005,8.4127741,16.582548,-1.3848585,-7.9432793,-23.64583
4825000000,-21.35763,-10.800873,16.596155,-1.1088856,-7.9469213,-58.857681
4830000000,-21.248951,-29.530552,16.629667,-0.76737899,-7.8113465,-93.205139
4835000000,-20.749975,-50.540451,16.672205,-0.53987837,-7.3370366,-130.11839
4840000000,-20.84053,-73.769531,16.696156,-0.56135893,-7.4522738,-169.71822
4845000000,-21.241728,-96.218628,16.703808,-0.80692542,-7.8301964,152.20726
4850000000,-21.664852,-115.35664,16.678545,-1.3468424,-8.3930655,116.48744
4855000000,-21.816917,-134.02853,16.631042,-2.0195928,-8.6452045,81.498512
4860000000,-22.08745,-152.45815,16.573235,-2.6131015,-9.0160713,47.433697
4865000000,-22.037603,-169.24956,16.512957,-3.0207019,-8.9812984,14.823555
4870000000,-21.784979,171.96732,16.474236,-3.0618942,-8.8216219,-19.823519
4875000000,-21.487398,150.55487,16.464373,-2.7757306,-8.5075998,-56.239712
4880000000,-21.609915,130.28435,16.480505,-2.3325603,-8.6106386,-91.292908
4885000000,-21.682484,108.46743,16.510002,-1.9258028,-8.6542997,-128.51956
4890000000,-22.203251,90.384003,16.546148,-1.6132512,-9.1143751,-161.3325
4895000000,-22.020506,73.598427,16.575121,-1.4511577,-8.8198051,166.10814
4900000000,-22.133646,53.606445,16.588472,-1.4928161,-8.8803062,130.71391
4905000000,-22.028669,36.179859,16.577692,-1.6656229,-8.6980562,96.923958
4910000000,-21.750252,17.915627,16.551218,-1.8352966,-8.4943895,62.086483
4915000000,-21.615824,-1.1389825,16.533354,-1.8390464,-8.3735018,27.132359
4920000000,-21.215391,-20.94846,16.525063,-1.6395707,-8.0010071,-8.4551754
4925000000,-21.204752,-44.365395,16.542074,-1.1609467,-7.9690461,-46.836246
4930000000,-21.453337,-64.819565,16.592949,-0.56538969,-8.1557331,-82.596245
4935000000,-21.617481,-82.004822,16.65733,0.010096519,-8.2510023,-115.23119
4940000000,-21.608551,-102.27444,16.717188,0.29907376,-8.2367077,-151.24075
4945000000,-21.440889,-121.31259,16.747534,0.14253083,-8.1569242,173.74965
4950000000,-21.443521,-141.69928,16.744181,-0.42218599,-8.2814255,137.53105
4955000000,-21.472399,-161.76959,16.715836,-1.1759669,-8.3631783,101.68317
4960000000,-21.601057,179.15535,16.666979,-2.024395,-8.4927845,66.440079
4965000000,-21.794487,158.81389,16.591742,-2.9225428,-8.6857214,30.078873
4970000000,-21.621037,141.04031,16.522093,-3.4120939,-8.5295172,-4.0430074
4975000000,-21.613033,120.41151,16.480059,-3.461853,-8.3548794,-40.956257
4980000000,-21.829679,101.51556,16.469265,-3.246412,-8.5994129,-76.609062
4985000000,-21.470819,81.055939,16.472481,-2.9858222,-8.3849707,-113.21764
4990000000,-21.609898,59.438732,16.476759,-2.8125217,-8.6900434,-149.66447
4995000000,-22.093861,38.89056,16.475342,-2.674937,-9.150301,174.21504
5000000000,-22.160439,21.300241,16.481398,-2.4719217,-9.3318243,141.47949
END,,,,,,