Freq(Hz),S21(DB),S21(DEG),"""a1,1""(DB)","""a1,1""(DEG)","""b2,1""(DB)","""b2,1""(DEG)"
4000000000,-21.020147,-134.64114,16.170595,-89.645996,-4.8495526,135.71286
4005000000,-20.57505,-148.16812,16.169718,-90.363228,-4.4053335,121.46866
4010000000,-20.688393,-165.50082,16.164146,-90.946671,-4.5242443,103.55251
4015000000,-20.578558,-178.44102,16.149229,-91.50029,-4.4293265,90.058685
4020000000,-20.584118,165.59912,16.129763,-92.041946,-4.4543548,73.557175
4025000000,-20.525755,151.57658,16.109024,-92.326614,-4.4167304,59.249981
4030000000,-20.503517,137.66347,16.095119,-92.929771,-4.4083982,44.733681
4035000000,-20.061298,121.85079,16.074989,-93.324799,-3.9863091,28.526007
4040000000,-19.966932,104.95087,16.055033,-93.697449,-3.9118996,11.253412
4045000000,-20.405628,87.575172,16.046669,-94.035515,-4.3589597,-6.4603453
4050000000,-20.674246,74.660561,16.042227,-94.168861,-4.6320181,-19.508297
4055000000,-20.549591,61.243786,16.037273,-94.705124,-4.5123186,-33.461338
4060000000,-20.657095,45.067608,16.044741,-95.2034,-4.6123538,-50.135788
4065000000,-20.561188,30.744253,16.054192,-95.369698,-4.5069971,-64.62545
4070000000,-20.940449,17.752363,16.063272,-95.930511,-4.8771777,-78.178146
4075000000,-20.582159,4.9341998,16.083118,-96.083641,-4.4990406,-91.149445
4080000000,-20.389553,-12.046954,16.099413,-96.688995,-4.2901421,-108.73595
4085000000,-20.380182,-24.967333,16.115385,-97.289474,-4.2647967,-122.25681
4090000000,-20.06378,-40.127705,16.140102,-97.71682,-3.9236784,-137.84451
4095000000,-20.071129,-57.44302,16.152706,-98.271774,-3.9184217,-155.7148
4100000000,-20.043165,-72.069489,16.172913,-98.618629,-3.8702526,-170.68813
4105000000,-20.140059,-88.492195,16.192066,-99.564613,-3.9479926,171.94321
4110000000,-20.264753,-102.80447,16.19956,-100.30444,-4.0651927,156.89108
4115000000,-20.507149,-116.80202,16.205656,-100.98089,-4.3014932,142.21709
4120000000,-20.329319,-130.59167,16.211067,-101.66825,-4.1182523,127.74008
4125000000,-20.08544,-147.37433,16.201397,-102.13361,-3.8840427,110.49207
4130000000,-20.411306,-164.09502,16.196815,-102.95336,-4.2144909,92.95163
4135000000,-20.60272,-177.763,16.199905,-103.33427,-4.4028153,78.902733
4140000000,-20.971727,169.15691,16.196203,-103.87685,-4.7755241,65.280052
4145000000,-20.704952,156.51848,16.202435,-104.20416,-4.5025182,52.31432
4150000000,-20.263506,141.55885,16.212564,-104.34664,-4.0509424,37.212219
4155000000,-20.604,124.37354,16.208979,-18.585293,-4.3950214,105.78824
4160000000,-20.817568,111.29582,16.215761,-18.988144,-4.6018062,92.307686
4165000000,-20.81748,97.097412,16.222664,-19.35754,-4.5948176,77.739876
4170000000,-20.670361,84.044266,16.241241,-19.546206,-4.4291196,64.498055
4175000000,-20.460617,68.452736,16.255974,-19.721439,-4.2046432,48.731304
4180000000,-20.723969,53.150784,16.281958,-20.219345,-4.4420099,32.931442
4185000000,-20.836187,38.48613,16.315302,-20.698071,-4.5208845,17.788063
4190000000,-20.848326,25.29855,16.341894,-21.102999,-4.5064325,4.1955528
4195000000,-20.555323,11.912105,16.375479,-21.479321,-4.1798444,-9.5672178
4200000000,-20.417139,-5.6574845,16.411535,-21.6817,-4.0056043,-27.339186
4205000000,-20.622046,-21.825991,16.436848,-22.496332,-4.1851969,-44.322323
4210000000,-21.031281,-36.483032,16.462334,-23.052832,-4.5689478,-59.53587
4215000000,-21.176212,-48.26709,16.487524,-23.618219,-4.6886883,-71.8853
4220000000,-21.106609,-62.367374,16.504366,-24.260998,-4.6022434,-86.628372
4225000000,-20.784168,-77.388222,16.51255,-24.599669,-4.2716188,-101.98788
4230000000,-20.965891,-92.126656,16.518385,-25.451817,-4.4475055,-117.57847
4235000000,-20.916855,-107.75249,16.516953,-26.068438,-4.3999028,-133.82092
4240000000,-21.05448,-121.25513,16.504627,-26.72744,-4.5498514,-147.98256
4245000000,-20.88036,-135.86928,16.483082,-27.258297,-4.3972759,-163.12758
4250000000,-21.157015,-150.66409,16.461832,-27.466658,-4.6951823,-178.13075
4255000000,-21.096802,-166.05428,16.433228,-28.175943,-4.6635742,165.76979
4260000000,-21.096102,179.18883,16.394878,-28.563526,-4.7012234,150.62531
4265000000,-21.382328,165.94098,16.349773,-28.925636,-5.0325551,137.01535
4270000000,-21.138971,148.73907,16.317812,-29.093731,-4.8211598,119.64536
4275000000,-21.404907,135.59885,16.287352,-29.166565,-5.1175561,106.43228
4280000000,-21.403791,121.38156,16.259115,-29.537355,-5.1446776,91.844208
4285000000,-21.388458,105.43755,16.235687,-29.689297,-5.152771,75.748238
4290000000,-21.870878,89.817062,16.220268,-30.005516,-5.6506095,59.811543
4295000000,-22.100323,77.915794,16.222082,-30.07762,-5.8782406,47.838173
4300000000,-22.163122,65.241211,16.220942,-30.12331,-5.9421806,35.117905
4305000000,-21.885912,52.248165,16.224701,-30.650856,-5.6612115,21.597305
4310000000,-21.725185,37.619244,16.240078,-31.030844,-5.4851089,6.5883999
4315000000,-22.068693,23.091379,16.251488,-31.283022,-5.8172059,-8.1916399
4320000000,-21.757139,12.705439,16.259853,-31.627645,-5.4972854,-18.922207
4325000000,-21.217215,-3.8149807,16.271774,-31.889217,-4.9454393,-35.704201
4330000000,-21.146561,-20.528423,16.290503,-32.423462,-4.8560572,-52.951885
4335000000,-21.435661,-37.475983,16.30385,-32.837982,-5.1318111,-70.313965
4340000000,-21.775509,-50.401737,16.31427,-33.249233,-5.4612393,-83.650978
4345000000,-21.716412,-62.19743,16.325006,-33.72834,-5.3914051,-95.925774
4350000000,-21.412441,-77.055771,16.327051,-34.136063,-5.0853887,-111.19183
4355000000,-21.239515,-91.864082,16.321341,-34.823654,-4.9181747,-126.68774
4360000000,-21.270679,-107.03613,16.31566,-35.358067,-4.955019,-142.3942
4365000000,-20.993437,-123.49027,16.302307,-35.897732,-4.6911306,-159.38802
4370000000,-21.526434,-139.86055,16.286268,-36.371426,-5.2401671,-176.23198
4375000000,-21.683744,-151.75478,16.266584,-36.636669,-5.4171591,171.60857
4380000000,-21.627047,-165.00443,16.25139,-37.214703,-5.3756557,157.78088
4385000000,-21.578102,179.54218,16.232357,-37.735416,-5.3457451,141.80676
4390000000,-21.664389,166.83003,16.207848,-38.11916,-5.4565411,128.71088
4395000000,-21.81633,153.10547,16.191055,-38.430458,-5.6252718,114.675
4400000000,-21.462759,140.72324,16.172312,-38.450241,-5.2904482,102.27299
4405000000,-21.291059,124.54462,16.150227,-38.903687,-5.1408339,85.640938
4410000000,-21.318645,109.19077,16.141092,-39.185661,-5.1775532,70.005104
4415000000,-21.514433,95.610687,16.136379,-39.539135,-5.3780537,56.071552
4420000000,-21.336998,82.284409,16.136681,-39.940903,-5.2003155,42.343506
4425000000,-21.09424,68.374962,16.140366,-39.949444,-4.9538755,28.425518
4430000000,-21.193153,53.02256,16.152979,-40.423859,-5.040175,12.598701
4435000000,-21.213617,39.202419,16.178093,-40.843452,-5.0355244,-1.6410332
4440000000,-21.123472,24.753765,16.204903,-41.238903,-4.9185691,-16.48514
4445000000,-20.89974,10.371616,16.226274,-41.900146,-4.6734657,-31.528536
4450000000,-20.916161,-4.4309678,16.246803,-42.094784,-4.6693578,-46.525749
4455000000,-20.773014,-18.241734,16.263002,-42.723637,-4.5100131,-60.965374
4460000000,-20.537708,-33.612045,16.278868,-43.425167,-4.2588406,-77.037216
4465000000,-20.678417,-52.07679,16.291039,-43.944225,-4.3873801,-96.021011
4470000000,-21.053331,-64.453865,16.287905,-44.583057,-4.7654252,-109.03693
4475000000,-21.14502,-78.269493,16.281717,-45.003521,-4.8633027,-123.27302
4480000000,-20.767433,-91.567055,16.272146,-45.7216,-4.4952879,-137.28865
4485000000,-20.537436,-108.38521,16.260878,-46.195599,-4.2765565,-154.5808
4490000000,-20.843172,-126.11998,16.241774,-46.737389,-4.6013999,-172.85736
4495000000,-21.144211,-140.38142,16.213932,-47.113544,-4.9302783,172.50504
4500000000,-21.561401,-155.73369,16.195063,-47.309994,-5.3663397,156.95631
4505000000,-21.821421,-166.36998,16.171217,-47.91449,-5.6502028,145.71553
4510000000,-21.755047,-179.36963,16.145241,-48.154606,-5.6098065,132.47577
4515000000,-21.564074,165.59427,16.127987,-48.390888,-5.4360876,117.20337
4520000000,-21.900509,151.89426,16.10284,-48.835766,-5.7976675,103.05849
4525000000,-21.824495,138.55423,16.087984,-48.963989,-5.7365103,89.590248
4530000000,-21.965782,125.26391,16.084095,-49.316246,-5.8816872,75.947662
4535000000,-21.888805,111.89037,16.084408,-49.561565,-5.8043981,62.328812
4540000000,-21.997379,98.176971,16.093174,-49.801399,-5.9042053,48.375568
4545000000,-21.939192,84.565811,16.112041,-50.060165,-5.8271523,34.505642
4550000000,-21.849829,73.470093,16.12999,-50.35511,-5.7198391,23.114985
4555000000,-21.360298,58.764355,16.153471,-50.78801,-5.2068267,7.9763446
4560000000,-21.238939,43.554394,16.184195,-51.281181,-5.0547452,-7.726788
4565000000,-21.210491,28.181227,16.224985,-51.737217,-4.9855056,-23.555984
4570000000,-21.117548,14.648633,16.268406,-52.184978,-4.8491426,-37.536346
4575000000,-20.901096,-0.98775327,16.302595,-52.629921,-4.5985026,-53.617676
4580000000,-20.912392,-17.285118,16.34561,-53.297409,-4.5667825,-70.582527
4585000000,-21.065998,-31.519381,16.38484,-53.891354,-4.6811571,-85.410728
4590000000,-21.167545,-45.599617,16.415497,-54.545712,-4.752048,-100.14532
4595000000,-21.26206,-59.790104,16.441114,-55.215809,-4.8209467,-115.00591
4600000000,-21.042297,-73.327492,16.461479,-55.698658,-4.5808191,-129.02614
4605000000,-20.976969,-87.475723,16.489155,-56.593613,-4.4878149,-144.06934
4610000000,-20.765551,-101.54547,16.501497,-57.205589,-4.2640543,-158.75105
4615000000,-20.667513,-120.02065,16.506674,-57.917095,-4.1608391,-177.93774
4620000000,-21.024494,-135.06068,16.522715,-58.439651,-4.5017781,166.49968
4625000000,-21.197868,-147.61765,16.530766,-58.771496,-4.6671014,153.61086
4630000000,-21.149208,-162.11,16.536392,-59.398926,-4.6128163,138.49107
4635000000,-21.228186,-175.97101,16.541086,-60.001801,-4.6870999,124.02721
4640000000,-21.075264,170.16959,16.541502,-60.447441,-4.533762,109.72215
4645000000,-21.128372,155.37343,16.538877,-60.752422,-4.5894942,94.62101
4650000000,-21.099234,141.49918,16.544989,-61.093761,-4.5542455,80.405411
4655000000,-21.041176,125.09412,16.553226,-61.608177,-4.4879503,63.485954
4660000000,-21.42655,110.2623,16.569147,-62.075562,-4.8574038,48.186741
4665000000,-21.732376,98.746399,16.591343,-62.444923,-5.1410332,36.301483
4670000000,-21.405159,87.139198,16.613047,-62.946888,-4.7921128,24.192312
4675000000,-21.130251,71.45916,16.642021,-63.304863,-4.4882302,8.1542978
4680000000,-21.365831,54.931614,16.671139,-63.872604,-4.6946921,-8.9409885
4685000000,-21.697401,42.868294,16.704853,-64.412804,-4.9925489,-21.54451
4690000000,-21.47711,31.807573,16.743711,-65.002007,-4.7333984,-33.194435
4695000000,-21.366764,16.67164,16.780575,-65.66098,-4.5861897,-48.989346
4700000000,-21.289497,2.1701789,16.811264,-66.335854,-4.4782329,-64.16568
4705000000,-21.520523,-11.014811,16.827473,-67.092896,-4.693049,-78.107712
4710000000,-21.224257,-20.610619,16.838091,-67.88163,-4.3861651,-88.492249
4715000000,-20.459885,-36.976536,16.845577,-68.594841,-3.614306,-105.57138
4720000000,-20.517189,-54.231724,16.845284,-69.383224,-3.6719058,-123.61495
4725000000,-20.888933,-67.90239,16.832224,-69.994431,-4.0567093,-137.89682
4730000000,-20.449194,-78.882652,16.817526,-70.810081,-3.6316667,-149.69273
4735000000,-20.103292,-96.555283,16.787512,-71.523758,-3.3157799,-168.07904
4740000000,-20.140003,-111.80229,16.749079,-72.145554,-3.3909252,176.05217
4745000000,-20.264935,-126.85635,16.705193,-72.736649,-3.5597415,160.40701
4750000000,-20.148188,-140.36255,16.668938,-73.110466,-3.479249,146.52698
4755000000,-19.813122,-155.15306,16.633835,-73.735222,-3.1792865,131.11172
4760000000,-19.801247,-172.1183,16.602243,-74.103462,-3.199003,113.77824
4765000000,-19.83754,172.65872,16.57967,-74.507759,-3.257869,98.15097
4770000000,-19.932543,157.20653,16.559259,-74.828133,-3.3732843,82.378395
4775000000,-19.949909,141.8797,16.5492,-75.059158,-3.4007075,66.820549
4780000000,-20.288692,125.24399,16.543058,-75.598816,-3.7456346,49.645172
4785000000,-20.619484,113.7581,16.547792,-75.940071,-4.071692,37.818027
4790000000,-20.214796,99.767143,16.569393,-76.183067,-3.6454048,23.584072
4795000000,-20.169571,82.74353,16.58923,-76.607796,-3.5803401,6.1357322
4800000000,-20.52471,68.362,16.608595,-76.853455,-3.916116,-8.4914551
4805000000,-20.665928,55.109158,16.630459,-77.308434,-4.0354691,-22.199272
4810000000,-20.60043,38.989273,16.657452,-77.824814,-3.9429777,-38.835541
4815000000,-20.789906,27.455698,16.68313,-78.434998,-4.1067753,-50.979298
4820000000,-20.456316,11.265191,16.70776,-78.960495,-3.7485566,-67.695313
4825000000,-20.668016,-3.953824,16.7318,-79.315353,-3.9362147,-83.26918
4830000000,-20.798311,-18.73728,16.743231,-79.978783,-4.0550795,-98.716057
4835000000,-20.969072,-32.682877,16.746862,-80.511436,-4.222209,-113.19431
4840000000,-20.920347,-46.471951,16.755041,-80.963448,-4.1653066,-127.4354
4845000000,-20.937696,-61.9324,16.752609,-81.487221,-4.1850863,-143.41962
4850000000,-21.076063,-76.431068,16.744467,-82.055603,-4.3315964,-158.48668
4855000000,-21.256836,-91.617813,16.734243,-82.832588,-4.522594,-174.45039
4860000000,-21.409246,-106.05848,16.707323,-83.336349,-4.7019215,170.60518
4865000000,-21.963041,-120.44216,16.684732,-83.789162,-5.2783108,155.76868
4870000000,-22.161827,-129.87292,16.662388,-84.116379,-5.4994397,146.01071
4875000000,-21.929474,-142.82056,16.644646,-84.434479,-5.2848277,132.74498
4880000000,-21.596569,-155.95683,16.623049,-84.799896,-4.9735188,119.24329
4885000000,-21.630466,-171.04625,16.593508,-85.101921,-5.0369577,103.85184
4890000000,-21.756327,176.24004,16.577585,-85.515175,-5.1787405,90.724861
4895000000,-21.637894,162.91119,16.553305,-85.839294,-5.0845876,77.071892
4900000000,-21.280643,148.80157,16.544132,-86.018372,-4.7365131,62.783211
4905000000,-21.488697,134.85429,16.531319,-86.438683,-4.957377,48.4156
4910000000,-21.147997,121.86275,16.529593,-86.550774,-4.6184049,35.311985
4915000000,-20.9007,107.80491,16.543127,-87.005898,-4.3575721,20.799006
4920000000,-20.543034,91.650787,16.560501,-87.348427,-3.9825308,4.3023567
4925000000,-20.692982,75.190903,16.581142,-87.828453,-4.1118383,-12.63755
4930000000,-20.780947,60.738354,16.599495,-88.448471,-4.1814518,-27.710115
4935000000,-21.104113,46.423401,16.618168,-89.076469,-4.4859457,-42.653069
4940000000,-20.843731,33.925819,16.630102,-89.699722,-4.2136297,-55.773903
4945000000,-20.800621,19.535675,16.647364,-90.30442,-4.1532574,-70.768745
4950000000,-20.598974,3.8651404,16.666428,-90.794708,-3.9325466,-86.929565
4955000000,-20.645124,-9.672349,16.681416,-91.560127,-3.9637098,-101.23248
4960000000,-20.510136,-25.206251,16.674049,-92.188721,-3.8360863,-117.39497
4965000000,-20.171698,-40.559097,16.669252,-92.809128,-3.5024445,-133.36823
4970000000,-20.476524,-58.141037,16.657148,-93.376701,-3.8193741,-151.51773
4975000000,-20.890045,-72.714859,16.634388,-93.883316,-4.2556591,-166.59818
4980000000,-21.054596,-84.696304,16.623034,-94.408447,-4.4315619,-179.10475
4985000000,-20.960892,-99.19017,16.598312,-94.904327,-4.3625789,165.9055
4990000000,-20.972952,-113.17207,16.571068,-95.423874,-4.4018831,151.40407
4995000000,-20.816784,-127.82095,16.548668,-95.633659,-4.2681165,136.54538
5000000000,-20.934605,-144.93448,16.523775,-95.932831,-4.4108305,119.13271
END,,,,,,