Freq(Hz),S21(DB),S21(DEG),"""a1,1""(DB)","""a1,1""(DEG)","""b2,1""(DB)","""b2,1""(DEG)"
4000000000,-34.178139,25.310087,16.110788,4.3140402,-18.067348,29.624128
4005000000,-33.097095,3.4320271,16.113409,3.6165836,-16.983686,7.0486107
4010000000,-33.223782,-14.314743,16.122972,3.1554492,-17.100809,-11.159294
4015000000,-33.312798,-36.834232,16.128538,2.5978675,-17.184263,-34.236366
4020000000,-33.971321,-49.000397,16.131758,2.0855632,-17.839563,-46.914829
4025000000,-33.476192,-63.440308,16.129578,1.7756937,-17.346613,-61.664616
4030000000,-33.369823,-85.361794,16.138437,1.0417618,-17.231386,-84.320023
4035000000,-35.14341,-107.19202,16.136679,0.59498376,-19.006731,-106.59704
4040000000,-37.164143,-121.41315,16.129276,0.065398775,-21.034866,-121.34776
4045000000,-38.754433,-105.40519,16.128967,-0.29385796,-22.625465,-105.69904
4050000000,-36.043007,-123.19891,16.125948,-0.62035483,-19.917061,-123.81927
4055000000,-35.431198,-144.9798,16.123411,-1.4609783,-19.307789,-146.44078
4060000000,-36.116695,-148.28432,16.122787,-2.0043397,-19.99391,-150.28865
4065000000,-35.105911,-169.33601,16.120993,-2.4785771,-18.984919,-171.81461
4070000000,-34.998859,171.38805,16.114443,-2.7764285,-18.884418,168.61162
4075000000,-35.297264,156.472,16.113251,-3.1615155,-19.184015,153.31049
4080000000,-36.046803,137.15625,16.107994,-3.7732263,-19.938808,133.38303
4085000000,-36.776497,114.81563,16.105877,-4.3084078,-20.670622,110.50723
4090000000,-40.367447,108.31074,16.101273,-4.7706146,-24.266176,103.54012
4095000000,-40.29932,123.27753,16.101044,-5.1913476,-24.198275,118.08617
4100000000,-37.053566,114.00849,16.101685,-5.3952885,-20.951881,108.61321
4105000000,-35.517799,90.165497,16.108723,-6.2314758,-19.409077,83.934021
4110000000,-35.835377,61.320484,16.109735,-6.7657623,-19.725643,54.554718
4115000000,-36.406414,54.019455,16.117544,-7.2737751,-20.28887,46.745678
4120000000,-35.319153,34.603958,16.130602,-7.8654428,-19.188547,26.738516
4125000000,-36.848412,13.988288,16.136242,-8.1043997,-20.71217,5.8838873
4130000000,-37.569962,5.1660581,16.153345,-8.7847338,-21.416615,-3.6186764
4135000000,-37.716278,-5.0001812,16.178596,-9.1966343,-21.53768,-14.196816
4140000000,-36.168327,-20.128002,16.202007,-9.7525311,-19.96632,-29.880535
4145000000,-36.290291,-43.722538,16.229202,-10.25576,-20.061089,-53.978294
4150000000,-37.840614,-72.732765,16.25668,-10.430952,-21.583935,-83.163719
4155000000,-40.46011,-71.70842,16.267454,-11.001287,-24.192656,-82.709709
4160000000,-40.627888,-81.579147,16.287138,-11.441793,-24.34075,-93.020935
4165000000,-41.145466,-83.694077,16.304823,-12.053403,-24.840641,-95.747482
4170000000,-40.008617,-97.204765,16.32663,-12.504519,-23.681988,-109.70929
4175000000,-40.861462,-114.94397,16.341194,-12.793561,-24.520267,-127.73754
4180000000,-41.817936,-115.34684,16.357393,-13.422385,-25.460545,-128.76923
4185000000,-38.26305,-118.55188,16.374453,-13.923144,-21.888596,-132.47504
4190000000,-36.495438,-148.71925,16.388218,-14.231663,-20.10722,-162.95091
4195000000,-37.877953,179.35921,16.401184,-14.769046,-21.476768,164.59016
4200000000,-41.047256,170.70276,16.408358,-15.01895,-24.638901,155.68381
4205000000,-41.085983,174.03984,16.414742,-15.84376,-24.671238,158.19609
4210000000,-39.978008,164.09412,16.418726,-16.337364,-23.559282,147.75676
4215000000,-40.189037,152.65733,16.423447,-16.732128,-23.765591,135.92522
4220000000,-38.01614,139.59848,16.427635,-17.268574,-21.588505,122.3299
4225000000,-38.78574,122.40257,16.425661,-17.500647,-22.360077,104.90192
4230000000,-38.02985,120.25867,16.423323,-18.190971,-21.606527,102.06771
4235000000,-36.869038,95.391953,16.422421,-18.543642,-20.446615,76.848312
4240000000,-37.400257,81.212013,16.419077,-18.894001,-20.98118,62.31802
4245000000,-37.653683,67.860168,16.414534,-19.249308,-21.239149,48.610863
4250000000,-37.235783,55.963284,16.410339,-19.533192,-20.825441,36.430092
4255000000,-36.801952,41.595943,16.406418,-20.21583,-20.395535,21.380114
4260000000,-36.342255,25.435656,16.394918,-20.681843,-19.947336,4.7538137
4265000000,-36.344517,9.0094337,16.379555,-20.905678,-19.964962,-11.896244
4270000000,-37.404079,-0.21205217,16.368593,-21.388264,-21.035488,-21.600317
4275000000,-36.992378,-14.720021,16.357542,-21.500166,-20.634838,-36.220184
4280000000,-36.328907,-23.606014,16.346973,-22.071146,-19.981937,-45.677158
4285000000,-35.751801,-35.083282,16.33717,-22.482592,-19.414629,-57.56588
4290000000,-34.244076,-53.292404,16.323992,-22.925234,-17.920086,-76.217636
4295000000,-34.330524,-78.256081,16.31588,-23.092279,-18.014647,-101.34837
4300000000,-36.076332,-88.950745,16.308651,-23.354891,-19.767681,-112.30563
4305000000,-35.570034,-99.140518,16.298878,-23.925304,-19.271156,-123.06582
4310000000,-35.189346,-116.75494,16.290369,-24.153034,-18.898975,-140.90797
4315000000,-34.850578,-129.14412,16.279741,-24.521065,-18.570837,-153.66519
4320000000,-34.613113,-151.54694,16.272591,-24.90443,-18.340525,-176.45139
4325000000,-36.213108,-168.73979,16.262083,-25.059425,-19.951023,166.20081
4330000000,-37.075092,179.91394,16.25625,-25.719116,-20.818844,154.19481
4335000000,-37.119488,173.32092,16.252728,-26.101837,-20.866764,147.21907
4340000000,-36.382965,157.65332,16.249269,-26.466776,-20.133696,131.18654
4345000000,-37.144344,142.65965,16.245419,-26.706522,-20.898928,115.95313
4350000000,-37.300846,129.8308,16.236561,-26.809717,-21.064285,103.02108
4355000000,-38.130421,116.41592,16.233912,-27.428616,-21.896507,88.987305
4360000000,-38.810287,103.00816,16.231823,-27.847862,-22.578466,75.160294
4365000000,-39.750374,103.14086,16.232828,-28.307665,-23.517546,74.833191
4370000000,-37.7439,90.884483,16.230707,-28.672615,-21.513191,62.211872
4375000000,-38.119793,69.436768,16.228651,-28.889635,-21.891142,40.547134
4380000000,-39.079075,59.199451,16.22995,-29.551945,-22.849127,29.647512
4385000000,-38.920383,60.009853,16.234125,-29.877007,-22.686256,30.132845
4390000000,-36.925968,37.307922,16.238182,-30.166807,-20.687788,7.1411109
4395000000,-36.652672,13.90755,16.240847,-30.6273,-20.411827,-16.719748
4400000000,-41.183205,0.74132633,16.239832,-30.82403,-24.943375,-30.082705
4405000000,-40.493999,7.4971666,16.236612,-31.426479,-24.257387,-23.92931
4410000000,-37.826221,6.2603984,16.238817,-31.835405,-21.587406,-25.57501
4415000000,-36.134602,-18.919928,16.244465,-32.270058,-19.890139,-51.189987
4420000000,-36.199604,-41.943485,16.245714,-32.792442,-19.953888,-74.735924
4425000000,-36.929726,-58.865665,16.242691,-33.17271,-20.687037,-92.038376
4430000000,-37.775307,-77.18763,16.236917,-33.881126,-21.538389,-111.06876
4435000000,-38.09198,-97.810127,16.233843,-34.309036,-21.858137,-132.11917
4440000000,-40.479298,-103.99421,16.229727,-34.703938,-24.249571,-138.69814
4445000000,-40.345867,-101.5067,16.225658,-35.201687,-24.120211,-136.70839
4450000000,-38.621037,-115.69674,16.221411,-35.58144,-22.399626,-151.27818
4455000000,-38.616291,-128.10315,16.212505,-36.258362,-22.403786,-164.36151
4460000000,-37.409061,-147.38823,16.207043,-36.683384,-21.202019,175.92839
4465000000,-36.931637,-164.10905,16.203577,-36.999226,-20.72806,158.89172
4470000000,-36.926601,172.34268,16.191475,-37.488747,-20.735126,134.85394
4475000000,-37.623558,149.46672,16.182411,-37.660542,-21.441147,111.80619
4480000000,-41.025398,137.67531,16.173784,-38.175415,-24.851616,99.499878
4485000000,-41.609642,148.29857,16.172937,-38.585613,-25.436705,109.71297
4490000000,-39.235355,133.383,16.169531,-38.954151,-23.065826,94.428856
4495000000,-39.882565,112.17989,16.167641,-39.165375,-23.714924,73.014519
4500000000,-38.304371,102.28996,16.166828,-39.379055,-22.137541,62.910908
4505000000,-38.994022,80.801498,16.166441,-39.861912,-22.827579,40.93959
4510000000,-39.544102,62.586918,16.165066,-40.234566,-23.379038,22.352352
4515000000,-40.153252,60.080368,16.170034,-40.668159,-23.983215,19.412205
4520000000,-39.521885,39.535431,16.174425,-41.126438,-23.347462,-1.5910095
4525000000,-40.226906,23.715012,16.180964,-41.316059,-24.045942,-17.601048
4530000000,-40.392784,17.185303,16.185301,-41.950382,-24.207483,-24.765081
4535000000,-40.104187,-0.93388838,16.189423,-42.397404,-23.914764,-43.331291
4540000000,-40.017475,-21.930229,16.199785,-42.79285,-23.817688,-64.723076
4545000000,-40.560047,-33.79425,16.213598,-43.302746,-24.346449,-77.097
4550000000,-41.951824,-53.798985,16.223736,-43.611565,-25.728088,-97.410545
4555000000,-43.126942,-61.037186,16.229282,-44.087132,-26.897661,-105.12431
4560000000,-44.0467,-62.979366,16.234365,-44.64193,-27.812332,-107.6213
4565000000,-42.322308,-61.751377,16.248568,-45.128986,-26.07374,-106.88036
4570000000,-42.923569,-74.793678,16.260393,-45.701744,-26.663176,-120.49542
4575000000,-41.560905,-80.000076,16.271599,-45.940441,-25.289307,-125.94051
4580000000,-39.91217,-94.253685,16.292904,-46.594456,-23.619268,-140.84813
4585000000,-38.293842,-114.93415,16.309288,-47.122097,-21.984556,-162.05626
4590000000,-37.912685,-140.06194,16.320162,-47.559471,-21.592524,172.3786
4595000000,-38.653366,-162.97655,16.33683,-47.966068,-22.316538,149.05737
4600000000,-42.150928,176.7596,16.358242,-48.299232,-25.792686,128.46037
4605000000,-43.223763,-174.0594,16.392277,-48.911438,-26.831486,137.02917
4610000000,-42.118725,175.16078,16.421604,-49.393463,-25.697121,125.7673
4615000000,-40.260838,175.58376,16.446791,-49.996578,-23.814049,125.58718
4620000000,-38.294243,149.84641,16.478352,-50.38969,-21.815887,99.456718
4625000000,-40.373657,125.5671,16.508265,-50.897949,-23.865391,74.669151
4630000000,-40.021935,120.26838,16.537479,-51.425385,-23.484457,68.843002
4635000000,-40.762436,110.02375,16.566574,-51.976013,-24.195862,58.047737
4640000000,-39.260597,102.49512,16.594723,48.454628,-22.665874,150.94975
4645000000,-38.502357,75.623177,16.619164,47.822327,-21.883194,123.44551
4650000000,-40.237667,64.073837,16.641357,47.423126,-23.59631,111.49696
4655000000,-39.343502,53.573078,16.661493,46.701965,-22.682009,100.27504
4660000000,-38.800755,34.170158,16.680365,46.19183,-22.120392,80.361992
4665000000,-39.285202,8.0381384,16.699951,45.651196,-22.585253,53.689335
4670000000,-43.414696,-8.4684067,16.711338,44.960957,-26.70336,36.49255
4675000000,-43.033508,15.043599,16.726761,44.44598,-26.306746,59.489574
4680000000,-39.125633,4.028986,16.739683,43.756443,-22.38595,47.785427
4685000000,-38.511349,-28.374821,16.74581,43.176682,-21.765539,14.801866
4690000000,-40.113701,-54.174774,16.751541,42.53508,-23.36216,-11.639696
4695000000,-41.496807,-61.372776,16.756199,42.022816,-24.740608,-19.349957
4700000000,-40.64674,-58.74992,16.760939,41.494823,-23.885801,-17.255093
4705000000,-39.398109,-90.908913,16.756031,40.742195,-22.642078,-50.166714
4710000000,-42.912445,-111.97708,16.748405,40.154556,-26.164038,-71.822525
4715000000,-43.287109,-99.292526,16.737127,39.607975,-26.54998,-59.684551
4720000000,-41.497242,-121.14706,16.731096,38.958008,-24.766148,-82.189049
4725000000,-42.711304,-148.46039,16.717484,38.553322,-25.993818,-109.90707
4730000000,-47.371235,-129.12495,16.717104,37.89518,-30.654131,-91.22979
4735000000,-43.34956,-131.14986,16.70796,37.261326,-26.641598,-93.888527
4740000000,-40.170712,-154.99536,16.697041,36.636765,-23.473671,-118.3586
4745000000,-41.818344,178.86731,16.687941,36.044086,-25.130402,-145.08861
4750000000,-42.747215,170.40594,16.681011,35.648052,-26.066204,-153.94601
4755000000,-42.665993,171.87617,16.675596,35.074463,-25.990396,-153.04935
4760000000,-39.78059,150.56177,16.672533,34.580379,-23.108053,-174.85786
4765000000,-39.933292,136.99431,16.669039,34.045033,-23.264256,171.03935
4770000000,-39.465763,115.21794,16.662994,33.52013,-22.802769,148.73808
4775000000,-40.042423,101.13541,16.666786,33.135082,-23.375639,134.27049
4780000000,-39.143955,77.058533,16.66363,32.497189,-22.480328,109.55572
4785000000,-42.727394,48.256374,16.65992,32.141319,-26.067474,80.39769
4790000000,-44.325371,78.714615,16.661863,31.723398,-27.663507,110.43801
4795000000,-40.020374,68.146622,16.661524,31.291801,-23.358852,99.438431
4800000000,-38.223137,39.877857,16.662161,30.836515,-21.560976,70.714371
4805000000,-39.544785,14.388655,16.663925,30.237658,-22.880861,44.626312
4810000000,-39.565468,0.89106917,16.660551,29.79204,-22.904917,30.683109
4815000000,-41.907017,-0.83317208,16.658222,29.299183,-25.248796,28.466011
4820000000,-37.104481,-12.005773,16.656641,29.001892,-20.44784,16.996119
4825000000,-36.165485,-45.907703,16.65904,28.583408,-19.506447,-17.324297
4830000000,-37.903301,-73.684502,16.652174,28.012585,-21.251127,-45.671913
4835000000,-39.413563,-83.402641,16.648514,27.596746,-22.765047,-55.805893
4840000000,-39.553398,-96.432877,16.645201,27.286781,-22.908199,-69.146088
4845000000,-40.102844,-106.39273,16.650427,26.870455,-23.452417,-79.522278
4850000000,-40.244598,-117.77626,16.649349,26.466286,-23.595247,-91.309975
4855000000,-39.625504,-126.05435,16.653807,26.005417,-22.971697,-100.04893
4860000000,-37.288494,-140.37398,16.648811,25.543278,-20.639681,-114.8307
4865000000,-36.743172,-172.64374,16.646624,25.22085,-20.096548,-147.42288
4870000000,-39.173779,166.74817,16.652695,24.834803,-22.521084,-168.41704
4875000000,-40.474838,153.67592,16.659563,24.360592,-23.815275,178.0365
4880000000,-40.921219,149.79732,16.660879,23.911209,-24.260342,173.70853
4885000000,-39.132706,135.12912,16.658607,23.411598,-22.4741,158.54071
4890000000,-39.258244,115.15761,16.662073,23.070301,-22.596169,138.22791
4895000000,-40.424549,93.70536,16.666731,22.578716,-23.757818,116.28407
4900000000,-41.383244,91.901466,16.669924,22.15152,-24.713322,114.05299
4905000000,-40.394859,73.790665,16.664259,21.521385,-23.730598,95.31205
4910000000,-41.192635,52.65847,16.651405,20.946245,-24.541227,73.604713
4915000000,-44.391247,40.781437,16.64201,20.409674,-27.749237,61.191113
4920000000,-43.673306,50.653442,16.63138,19.990257,-27.041925,70.6437
4925000000,-41.52182,34.419365,16.620497,19.477293,-24.901323,53.89666
4930000000,-42.051559,14.194741,16.610046,18.95591,-25.441513,33.15065
4935000000,-41.832752,3.4868538,16.599686,18.440792,-25.233068,21.927645
4940000000,-40.579414,-12.713152,16.5877,17.931421,-23.991714,5.2182698
4945000000,-40.799221,-42.053131,16.573746,17.557152,-24.225475,-24.495975
4950000000,-42.803001,-56.237099,16.568542,17.03241,-26.234459,-39.204689
4955000000,-46.055584,-74.573013,16.569912,16.592991,-29.485672,-57.980022
4960000000,-46.862492,-64.544014,16.563393,16.020107,-30.299099,-48.523903
4965000000,-44.898746,-59.265217,16.559998,15.577127,-28.338751,-43.688091
4970000000,-41.862484,-91.791901,16.560766,15.20408,-25.301716,-76.587822
4975000000,-45.86438,-132.65683,16.565054,14.771011,-29.299324,-117.88582
4980000000,-51.06712,-105.5622,16.566442,14.305883,-34.500675,-91.256325
4985000000,-49.238785,-97.967072,16.567011,13.830554,-32.671772,-84.13652
4990000000,-47.473644,-74.584396,16.566986,13.430087,-30.906658,-61.154312
4995000000,-41.276417,-103.89316,16.568398,13.07303,-24.708019,-90.820129
5000000000,-41.694485,-144.58113,16.569923,12.705726,-25.124561,-131.87541
END,,,,,,