Freq(Hz),S21(DB),S21(DEG),"""a1,1""(DB)","""a1,1""(DEG)","""b2,1""(DB)","""b2,1""(DEG)"
4000000000,-21.173065,-92.624031,16.18391,-1.398378,-8.1707373,-69.414391
4005000000,-20.948164,-108.40896,16.163717,-1.7138181,-7.9367194,-100.96772
4010000000,-21.10825,-120.61972,16.146852,-1.9699786,-8.026227,-129.20148
4015000000,-20.828575,-135.32712,16.126698,-2.116998,-7.7787294,-159.61349
4020000000,-20.738922,-150.47569,16.114704,-2.0862527,-7.6888747,169.39964
4025000000,-21.403069,-163.7437,16.111023,-1.8859262,-8.2937698,140.4364
4030000000,-21.265959,-173.79338,16.120689,-1.585174,-8.1448908,114.50702
4035000000,-21.151087,173.57716,16.1418,-1.2395445,-8.094841,86.49157
4040000000,-20.956556,159.05974,16.167788,-0.93244785,-7.8691597,56.570202
4045000000,-21.006294,145.22223,16.196733,-0.71111822,-7.9061298,27.390966
4050000000,-20.860401,131.91112,16.221542,-0.60965806,-7.7779837,-1.2885826
4055000000,-21.198832,118.39545,16.234549,-0.64743108,-8.0381851,-30.469769
4060000000,-20.832867,107.67924,16.235693,-0.81055933,-7.6785598,-57.08028
4065000000,-20.468822,93.93187,16.22286,-1.0763912,-7.290658,-86.723305
4070000000,-20.483164,77.374779,16.195646,-1.4150144,-7.2811742,-119.65777
4075000000,-20.60626,63.901371,16.168726,-1.66697,-7.4333272,-149.25183
4080000000,-20.710678,49.069618,16.150331,-1.771171,-7.5449586,179.6963
4085000000,-20.973919,37.424038,16.144506,-1.7460245,-7.8354239,152.41985
4090000000,-20.95195,24.066648,16.152782,-1.6454326,-7.8619623,122.9395
4095000000,-20.59354,12.519258,16.168396,-1.4888668,-7.5546374,95.68322
4100000000,-20.890213,-2.3920438,16.184875,-1.3486514,-7.8855772,65.445602
4105000000,-20.833513,-13.214239,16.200241,-1.2800028,-7.8242378,38.958847
4110000000,-20.386822,-25.885054,16.207174,-1.265596,-7.4247036,11.532531
4115000000,-20.333025,-44.066509,16.2082,-1.2905332,-7.3952188,-21.935999
4120000000,-20.464445,-56.162384,16.200602,-1.4347237,-7.4848328,-49.919727
4125000000,-20.306952,-70.909622,16.191856,-1.5988725,-7.3609128,-80.406837
4130000000,-20.654877,-87.895027,16.192495,-1.7610642,-7.6607571,-112.76524
4135000000,-21.065123,-98.597374,16.204943,-1.8126541,-8.0027838,-139.52736
4140000000,-21.111618,-110.9175,16.219305,-1.7766025,-7.9487424,-167.56425
4145000000,-21.334278,-124.52465,16.231831,-1.6932433,-8.1117268,163.24603
4150000000,-21.240673,-135.5979,16.253508,-1.4807559,-7.9812446,136.12085
4155000000,-21.242167,-149.12201,16.277634,-1.2495924,-7.9553604,107.00657
4160000000,-21.256372,-160.78368,16.299358,-1.1183791,-7.9749827,79.119659
4165000000,-21.18335,-172.56392,16.326813,-0.97845471,-7.939909,51.968365
4170000000,-21.16276,173.6815,16.3444,-1.0047084,-7.9353108,22.649982
4175000000,-20.844465,161.88257,16.360146,-1.0886604,-7.6103597,-5.0582995
4180000000,-20.495451,147.35805,16.37093,-1.2172955,-7.3314195,-35.143154
4185000000,-20.474882,132.22586,16.381227,-1.2825625,-7.3139443,-65.911728
4190000000,-20.451626,117.135,16.385645,-1.3349735,-7.2675457,-96.521584
4195000000,-20.666006,104.08994,16.389654,-1.3345914,-7.4524736,-125.44704
4200000000,-20.689619,89.711021,16.387651,-1.3453091,-7.4395494,-155.64476
4205000000,-21.258465,76.051727,16.384377,-1.3431883,-7.9514565,175.42291
4210000000,-21.024502,64.112663,16.385298,-1.3857187,-7.7861304,147.36217
4215000000,-21.151928,50.265759,16.389122,-1.4689708,-7.8486362,117.60921
4220000000,-21.522423,35.407459,16.39547,-1.6332467,-8.2484474,86.835777
4225000000,-22.077391,26.042881,16.387545,-1.8881458,-8.8075457,61.240692
4230000000,-21.587286,15.852964,16.369162,-2.1567471,-8.3768291,35.163544
4235000000,-21.597467,1.3549217,16.344374,-2.3675311,-8.4610567,4.7324924
4240000000,-21.653292,-10.567192,16.308731,-2.5529406,-8.5291224,-22.764826
4245000000,-21.521557,-21.697033,16.282143,-2.5496657,-8.4288826,-49.596375
4250000000,-21.075459,-35.574623,16.269199,-2.3536596,-8.0090952,-78.603539
4255000000,-21.008982,-50.60096,16.268774,-2.0324473,-7.9193144,-109.27748
4260000000,-21.372696,-63.685722,16.290497,-1.540445,-8.2418699,-137.43225
4265000000,-21.488018,-78.194954,16.33819,-0.92301035,-8.2577229,-167.24139
4270000000,-21.530024,-89.854027,16.399933,-0.35002235,-8.3030529,166.07927
4275000000,-21.495903,-101.72447,16.458925,0.11474681,-8.1881447,138.88461
4280000000,-21.617617,-115.35851,16.505339,0.38221246,-8.2663593,109.84515
4285000000,-21.661961,-127.58709,16.538862,0.47938618,-8.2797909,81.756714
4290000000,-21.685778,-138.90085,16.547562,0.27271062,-8.3255148,54.546684
4295000000,-21.667263,-152.70819,16.537943,-0.17793833,-8.3094912,24.735029
4300000000,-21.611853,-166.26018,16.504824,-0.86532378,-8.2713013,-5.2677956
4305000000,-21.892365,-178.91901,16.46039,-1.6758031,-8.5877237,-34.38567
4310000000,-21.983044,168.98019,16.402554,-2.4648829,-8.7500744,-63.078026
4315000000,-22.270382,158.37804,16.341406,-3.0372226,-9.0790939,-89.928078
4320000000,-21.991358,149.96042,16.283495,-3.3605547,-8.8086643,-114.55953
4325000000,-21.322092,137.18909,16.23567,-3.3745794,-8.2092419,-143.24319
4330000000,-21.218773,123.11315,16.212196,-3.0826709,-8.1450052,-172.93625
4335000000,-20.877119,110.4221,16.210075,-2.6146252,-7.9249892,159.11745
4340000000,-20.753691,97.74585,16.234529,-2.0394309,-7.7164035,130.99562
4345000000,-20.438887,83.038521,16.278053,-1.469303,-7.4653707,101.31622
4350000000,-20.596249,67.670151,16.332697,-0.96415764,-7.5927882,71.035767
4355000000,-20.527096,55.916145,16.382671,-0.63376784,-7.5197339,44.259697
4360000000,-20.36075,41.655819,16.419268,-0.44017312,-7.2959313,15.128133
4365000000,-20.382185,28.029179,16.437584,-0.4328686,-7.2647161,-13.786571
4370000000,-20.273897,13.816558,16.437054,-0.53689218,-7.1223664,-44.127457
4375000000,-20.544043,-1.4112716,16.42728,-0.69706482,-7.3564644,-74.82206
4380000000,-20.754499,-11.620233,16.423197,-0.75823402,-7.492682,-100.85529
4385000000,-20.471502,-24.94973,16.426134,-0.75744992,-7.1949072,-130.22807
4390000000,-20.512625,-38.523014,16.441162,-0.71253711,-7.1533036,-159.80975
4395000000,-20.606546,-52.125652,16.459211,-0.61123735,-7.2488489,170.76373
4400000000,-20.562325,-63.837605,16.486002,-0.52445722,-7.1920757,143.12688
4405000000,-20.396233,-76.03212,16.498022,-0.59595811,-7.0401573,114.7521
4410000000,-19.839874,-90.774055,16.493977,-0.86284178,-6.5965176,83.953117
4415000000,-20.169958,-106.93369,16.471283,-1.2965335,-6.9710917,51.905457
4420000000,-20.408749,-119.92363,16.42416,-1.8790547,-7.2902188,22.865427
4425000000,-20.322308,-131.68822,16.368628,-2.4662075,-7.2329535,-5.2283301
4430000000,-20.440348,-146.95386,16.305609,-2.9866426,-7.4032946,-36.401711
4435000000,-20.512949,-159.03439,16.257008,-3.2242694,-7.5241551,-64.354149
4440000000,-20.387829,-173.2198,16.21582,-3.2884052,-7.3854594,-94.351273
4445000000,-20.640991,173.37909,16.189938,-3.0638738,-7.6666241,-123.52106
4450000000,-20.70001,161.07587,16.186741,-2.5453031,-7.7256498,-151.3806
4455000000,-20.561171,145.56276,16.203978,-1.8923423,-7.5489416,177.89691
4460000000,-20.893633,132.45032,16.247118,-1.1418244,-7.9334373,150.05228
4465000000,-21.196959,118.54184,16.307381,-0.43044752,-8.2258863,121.14086
4470000000,-21.396084,107.67915,16.384804,0.22380587,-8.4154806,95.399719
4475000000,-21.450233,94.570618,16.465031,0.65383404,-8.3903685,67.533981
4480000000,-21.50873,82.834915,16.525713,0.76867217,-8.3221397,40.50423
4485000000,-21.501602,70.024338,16.565786,0.63264698,-8.3187256,12.035256
4490000000,-21.403364,57.503132,16.573357,0.23846042,-8.1881809,-16.270962
4495000000,-21.379683,45.651897,16.562733,-0.24854267,-8.1226931,-44.184643
4500000000,-21.683853,31.16502,16.53824,-0.8045398,-8.313158,-75.313293
4505000000,-21.749996,20.447506,16.48922,-1.4288143,-8.3959789,-102.38759
4510000000,-21.765722,8.5500402,16.442043,-1.9036809,-8.3744678,-131.09508
4515000000,-21.374683,-3.9500825,16.396915,-2.282599,-8.0460339,-160.00101
4520000000,-21.343529,-18.34374,16.354206,-2.5278926,-8.0691175,169.17899
4525000000,-21.521124,-32.520267,16.326159,-2.635807,-8.3686447,138.7578
4530000000,-21.755919,-44.031303,16.310406,-2.6448998,-8.6752243,110.75661
4535000000,-21.799364,-57.329079,16.297852,-2.5959804,-8.8604536,81.912079
4540000000,-21.983606,-68.379745,16.287506,-2.4891648,-9.1196461,55.578362
4545000000,-21.969345,-80.257484,16.277676,-2.324614,-9.181571,28.58477
4550000000,-21.668165,-93.208473,16.271879,-2.0935836,-8.9549551,1.0970423
4555000000,-21.738226,-104.78422,16.272749,-1.8186196,-9.0331726,-25.739985
4560000000,-21.592445,-118.39013,16.284271,-1.4638424,-8.8837748,-54.474648
4565000000,-21.763563,-131.88292,16.314718,-1.0286082,-8.9915934,-82.361786
4570000000,-21.903288,-142.28506,16.359882,-0.54957247,-8.9753647,-107.8988
4575000000,-21.520033,-154.04994,16.409424,-0.09161672,-8.5065651,-134.63196
4580000000,-21.40085,-168.59624,16.466444,0.29154742,-8.2908363,-164.28294
4585000000,-21.498446,179.95473,16.519506,0.4848271,-8.2433271,168.48973
4590000000,-21.280184,167.01976,16.547956,0.39522773,-8.0099964,139.33734
4595000000,-21.201035,154.48312,16.563799,0.16178168,-7.859467,110.68911
4600000000,-20.913462,140.99596,16.560923,-0.30135271,-7.5719366,81.141342
4605000000,-20.894197,126.38422,16.543163,-0.95445311,-7.5588245,49.687069
4610000000,-20.930658,111.84664,16.503265,-1.7322395,-7.6299953,18.654493
4615000000,-21.253723,97.939842,16.44928,-2.4196389,-7.9861107,-11.980602
4620000000,-21.490889,86.456703,16.395168,-2.9486833,-8.3197002,-39.913071
4625000000,-21.459965,74.118141,16.345066,-3.2082765,-8.2929468,-68.623314
4630000000,-21.719923,62.934902,16.306778,-3.1960106,-8.6102629,-95.764206
4635000000,-21.43576,50.696091,16.289534,-2.8599265,-8.4138899,-123.69711
4640000000,-21.559162,38.78891,16.306292,-2.2828648,-8.5700474,-150.99545
4645000000,-21.18988,26.53393,16.358343,-1.5608106,-8.2548256,-177.85484
4650000000,-20.977547,12.161005,16.433376,-0.88287508,-8.0496016,153.01048
4655000000,-21.201059,-1.7395778,16.515888,-0.34624285,-8.254776,123.9026
4660000000,-21.32452,-13.81446,16.586777,-0.040675048,-8.328722,96.960625
4665000000,-21.454622,-25.907381,16.643358,0.00029013405,-8.3991251,69.531693
4670000000,-21.24481,-37.690304,16.660219,-0.32134661,-8.170435,43.040482
4675000000,-21.037331,-51.084553,16.650513,-0.77381039,-7.928443,13.896901
4680000000,-21.200451,-65.503716,16.622906,-1.2963362,-7.9821653,-16.572987
4685000000,-21.462948,-78.264465,16.584019,-1.7307776,-8.2040939,-45.060093
4690000000,-21.663397,-87.669891,16.548031,-2.0594611,-8.3565388,-70.774712
4695000000,-21.16551,-100.28448,16.525246,-2.0704319,-7.8191509,-99.495216
4700000000,-21.035069,-112.66562,16.519678,-1.9184544,-7.6537023,-128.02953
4705000000,-21.057882,-125.34513,16.5256,-1.6011012,-7.6004462,-156.81799
4710000000,-21.082115,-138.00549,16.555752,-1.1814834,-7.6413422,174.56386
4715000000,-20.817223,-149.74193,16.595747,-0.77404195,-7.354063,147.1463
4720000000,-20.719692,-162.95731,16.642851,-0.49873155,-7.2801633,118.04427
4725000000,-20.550106,-175.44704,16.665697,-0.52780229,-7.1791606,89.599884
4730000000,-20.251669,170.5314,16.665396,-0.76230484,-7.0134683,59.956051
4735000000,-20.302124,157.11568,16.648571,-1.0721359,-7.0988293,30.640028
4740000000,-20.273809,143.53352,16.624949,-1.4238181,-7.0776668,1.8663138
4745000000,-20.220112,128.64308,16.595661,-1.7631975,-7.1033449,-28.775864
4750000000,-20.564274,117.05795,16.567965,-2.0357914,-7.4026022,-55.897137
4755000000,-20.253578,106.03132,16.539787,-2.1971509,-7.1211319,-82.824188
4760000000,-19.862293,93.797791,16.524855,-2.1758442,-6.680542,-111.0944
4765000000,-19.606937,79.169891,16.519457,-2.0592082,-6.4018598,-141.74857
4770000000,-19.498426,62.123501,16.524548,-1.8789078,-6.3480854,-174.30525
4775000000,-19.849148,48.48069,16.540434,-1.6807301,-6.6605129,156.54593
4780000000,-19.892773,34.21957,16.562832,-1.4674122,-6.7456193,127.009
4785000000,-20.170792,21.334053,16.58564,-1.3454945,-6.9913697,98.549164
4790000000,-20.180027,8.6596937,16.597025,-1.352749,-7.0098076,70.406815
4795000000,-20.143238,-4.4322953,16.599625,-1.4228616,-6.977797,41.829605
4800000000,-20.307281,-17.564505,16.596401,-1.5452231,-7.1157646,13.005669
4805000000,-20.298607,-29.566622,16.581274,-1.6539041,-7.0675488,-14.86773
4810000000,-20.471508,-43.620506,16.570343,-1.671875,-7.187427,-44.026821
4815000000,-20.440144,-55.320518,16.563242,-1.6085154,-7.0742893,-71.777016
4820000000,-20.23464,-69.052086,16.567038,-1.4068142,-6.8567724,-101.4366
4825000000,-20.360466,-83.007858,16.590246,-1.0587147,-6.9366293,-131.47313
4830000000,-20.601315,-96.473389,16.625057,-0.73226684,-7.2001491,-160.57088
4835000000,-20.654255,-108.16944,16.664173,-0.49638802,-7.2634563,171.72482
4840000000,-20.666447,-119.80717,16.698305,-0.41226619,-7.3310633,144.10954
4845000000,-20.58448,-132.02115,16.710896,-0.60653245,-7.2575145,116.24554
4850000000,-20.418623,-147.0271,16.69849,-1.0488806,-7.2370052,85.492897
4855000000,-20.724028,-160.83305,16.66427,-1.6323851,-7.5854735,55.68449
4860000000,-20.908653,-172.25703,16.616579,-2.2513447,-7.796349,28.243795
4865000000,-20.99367,174.87137,16.557348,-2.8306441,-7.936183,-0.40732524
4870000000,-21.06204,162.58406,16.503504,-3.1850376,-8.0623474,-28.521902
4875000000,-21.031078,152.01166,16.460377,-3.2697666,-7.9674568,-54.865719
4880000000,-20.868031,139.7242,16.438856,-3.0778255,-7.8050132,-82.433838
4885000000,-20.633507,126.75082,16.438051,-2.7052245,-7.5504537,-110.89996
4890000000,-20.483635,112.81607,16.461527,-2.2095196,-7.3963261,-140.14101
4895000000,-20.60478,100.98365,16.506443,-1.6175743,-7.3979087,-167.29279
4900000000,-20.291834,86.687492,16.556047,-1.178188,-7.0284109,163.15358
4905000000,-20.350243,72.354439,16.596342,-0.90154731,-7.0665936,133.06471
4910000000,-20.464596,57.329037,16.617334,-0.808061,-7.2400312,102.33545
4915000000,-20.806425,45.307564,16.636526,-0.75323832,-7.5354619,74.622772
4920000000,-20.764101,31.921364,16.641026,-0.86857188,-7.5238776,45.310062
4925000000,-21.050747,20.172056,16.62888,-1.0779905,-7.7878513,17.858683
4930000000,-21.001535,8.0752211,16.613779,-1.2293352,-7.7632623,-10.028435
4935000000,-21.003115,-5.0441551,16.609365,-1.1869813,-7.713038,-38.844593
4940000000,-21.192511,-17.126696,16.612774,-1.0994359,-7.9297538,-66.666489
4945000000,-21.247757,-29.984896,16.625277,-0.99320078,-7.976501,-95.164742
4950000000,-21.118219,-40.339622,16.640123,-0.94479394,-7.8572836,-121.27672
4955000000,-20.712227,-53.133232,16.660975,-0.93063676,-7.4643321,-150.21201
4960000000,-20.486853,-69.137146,16.676334,-1.0670493,-7.2383385,177.76468
4965000000,-20.999027,-84.208267,16.675119,-1.4116983,-7.8350425,146.73024
4970000000,-21.462069,-96.090706,16.648748,-1.9860967,-8.427557,118.68541
4975000000,-21.663155,-105.909,16.611212,-2.5546787,-8.5696697,92.966393
4980000000,-21.391417,-117.38888,16.556696,-3.1509838,-8.4119463,65.523773
4985000000,-21.325912,-130.64328,16.495417,-3.6470304,-8.398612,36.197403
4990000000,-21.404285,-143.87592,16.434879,-3.9113309,-8.5158567,7.7320032
4995000000,-21.423098,-154.99792,16.393042,-3.860467,-8.5107021,-19.453787
5000000000,-21.267326,-169.85464,16.373434,-3.5175762,-8.3575802,-49.371807
END,,,,,,