Freq(Hz),S21(DB),S21(DEG),"""a1,1""(DB)","""a1,1""(DEG)","""b2,1""(DB)","""b2,1""(DEG)"
5000000000,-59.308735,-42.310158,16.585142,-125.92699,-42.723595,-168.23714
5001250000,-58.42205,-30.298265,16.57497,-14.141874,-41.84708,-44.44014
5002500000,-55.841125,-48.012089,16.557627,-14.351474,-39.283501,-62.363564
5003750000,-55.066704,-68.597977,16.542734,-14.3269,-38.523972,-82.924873
5005000000,-55.071991,-92.680336,16.529852,-14.44981,-38.542141,-107.13014
5006250000,-56.97364,-116.91241,16.514946,-14.432036,-40.458698,-131.34445
5007500000,-60.063351,-127.50717,16.500118,-14.564099,-43.563232,-142.07129
5008750000,-61.895237,-121.98763,16.48522,-14.626329,-45.410015,-136.61397
5010000000,-62.014114,-113.23281,16.472589,-14.793532,-45.541527,-128.02634
5011250000,-58.325981,-110.36913,16.461433,-14.891804,-41.864548,-125.26093
5012500000,-55.932865,-136.27484,16.450136,-14.77262,-39.482731,-151.04747
5013750000,-55.925358,-159.83194,16.437439,-14.870339,-39.487919,-174.70227
5015000000,-57.14447,-178.98663,16.427792,-14.852706,-40.716679,166.16066
5016250000,-57.610596,175.58157,16.41995,-14.874568,-41.190643,160.707
5017500000,-56.794376,158.93935,16.411957,-15.012567,-40.38242,143.9268
5018750000,-58.924809,138.87912,16.406013,-14.951645,-42.518795,123.92747
5020000000,-60.175159,152.22351,16.399824,-15.112636,-43.775337,137.11087
5021250000,-57.965691,148.22514,16.395691,-15.171069,-41.57,133.05408
5022500000,-55.890842,138.76747,16.393028,-15.235526,-39.497814,123.53195
5023750000,-55.110176,116.80651,16.390371,-15.333155,-38.719807,101.47336
5025000000,-55.299637,105.333,16.389326,-15.352628,-38.910309,89.980377
5026250000,-55.52076,90.988052,16.393406,-15.370157,-39.127354,75.617889
5027500000,-56.127621,85.423759,16.392513,-15.495657,-39.735107,69.928101
5028750000,-55.932545,83.134491,16.396702,-15.507993,-39.535839,67.626495
5030000000,-54.600845,80.469727,16.402514,-15.634564,-38.198334,64.835159
5031250000,-52.912735,71.069084,16.406467,-15.534763,-36.506268,55.534317
5032500000,-52.01461,55.788689,16.41293,-15.60129,-35.601681,40.187397
5033750000,-51.895897,44.45657,16.422863,-15.77997,-35.473034,28.676601
5035000000,-51.285011,36.304375,16.431961,-15.816239,-34.85305,20.488138
5036250000,-50.682041,25.97942,16.440876,-15.857187,-34.241169,10.122233
5037500000,-50.181377,15.120781,16.452877,-15.775185,-33.7285,-0.654405
5038750000,-49.816471,7.0650587,16.463778,-15.988074,-33.352695,-8.9230165
5040000000,-48.79747,-3.1478176,16.478718,-15.993943,-32.318752,-19.14176
5041250000,-48.282246,-16.678423,16.491096,-16.219067,-31.791147,-32.897488
5042500000,-48.18256,-28.038761,16.502972,-16.307293,-31.67959,-44.346054
5043750000,-48.042435,-38.124866,16.518206,-16.306204,-31.524229,-54.431072
5045000000,-47.701862,-47.800762,16.530901,-16.516941,-31.170961,-64.317703
5046250000,-47.538719,-58.181259,16.544327,-16.611502,-30.994394,-74.792755
5047500000,-47.100285,-68.537979,16.558109,-16.645262,-30.542175,-85.183235
5048750000,-47.1469,-82.518402,16.56978,-16.782297,-30.57712,-99.300697
5050000000,-47.917568,-91.027458,16.585165,-16.962585,-31.332405,-107.99004
5051250000,-47.867756,-95.437378,16.598629,-17.216013,-31.269125,-112.65339
5052500000,-47.3988,-103.00864,16.612577,-17.351189,-30.786222,-120.35983
5053750000,-47.160686,-112.36911,16.626402,-17.544136,-30.534286,-129.91324
5055000000,-46.896145,-121.40221,16.641163,-17.62109,-30.254982,-139.02332
5056250000,-46.794514,-131.7697,16.652899,-17.691759,-30.141615,-149.46147
5057500000,-46.889011,-140.5166,16.664665,-17.933945,-30.224344,-158.45056
5058750000,-46.68996,-149.95499,16.674477,-18.163853,-30.015484,-168.11884
5060000000,-46.768242,-159.52129,16.684761,-18.337729,-30.083483,-177.85901
5061250000,-46.736668,-169.7747,16.69371,-18.576376,-30.042959,171.64893
5062500000,-47.107658,178.34164,16.702291,-18.669706,-30.405367,159.67194
5063750000,-48.428352,170.09023,16.708445,-18.954222,-31.719908,151.136
5065000000,-48.855797,170.6514,16.716696,-19.238701,-32.139103,151.41269
5066250000,-48.238102,166.80077,16.721289,-19.325352,-31.516811,147.47542
5067500000,-48.023449,159.59785,16.726772,-19.466736,-31.296675,140.13112
5068750000,-47.510998,152.26483,16.730536,-19.479706,-30.780462,132.78513
5070000000,-47.344067,141.73645,16.734589,-19.76725,-30.609478,121.9692
5071250000,-47.656723,131.81113,16.737541,-20.026009,-30.91918,111.78512
5072500000,-48.111347,123.96401,16.739525,-20.172668,-31.371822,103.79134
5073750000,-48.40937,120.88513,16.741472,-20.353474,-31.667896,100.53165
5075000000,-47.731819,113.76423,16.741251,-20.47278,-30.990568,93.291443
5076250000,-47.742275,102.81256,16.740622,-20.738792,-31.001654,82.073769
5077500000,-48.395817,92.714958,16.739725,-20.926207,-31.65609,71.788742
5078750000,-48.791611,87.534821,16.736559,-21.081697,-32.055054,66.453125
5080000000,-49.283951,79.742531,16.732882,-21.444181,-32.551071,58.298355
5081250000,-49.869846,76.248825,16.727571,-21.417719,-33.142273,54.831108
5082500000,-50.219536,72.419228,16.721987,-21.553923,-33.497547,50.865307
5083750000,-50.496563,70.335815,16.71699,-21.690937,-33.779575,48.644878
5085000000,-50.607952,70.854889,16.710407,-21.794802,-33.897545,49.060085
5086250000,-49.416595,71.283211,16.702662,-21.962236,-32.713932,49.320969
5087500000,-48.03867,63.874638,16.693415,-22.074465,-31.345255,41.800175
5088750000,-47.303097,50.437801,16.684988,-22.075346,-30.618107,28.362453
5090000000,-47.742657,39.902935,16.673662,-22.319857,-31.068993,17.58308
5091250000,-47.6707,34.399296,16.663538,-22.541304,-31.007164,11.857993
5092500000,-47.358627,25.202406,16.652969,-22.651434,-30.705656,2.5509751
5093750000,-47.889263,15.76983,16.640081,-22.827658,-31.249184,-7.0578279
5095000000,-48.07383,13.044977,16.628075,-22.884483,-31.445757,-9.8395061
5096250000,-47.663025,7.7286177,16.616379,-23.03264,-31.046648,-15.304023
5097500000,-47.45874,2.1877093,16.603502,-23.159582,-30.855238,-20.971872
5098750000,-46.586048,-2.9416869,16.592392,-23.191849,-29.993658,-26.133539
5100000000,-45.768074,-14.427757,16.580423,-23.145441,-29.187651,-37.573196
5101250000,-45.551983,-25.754307,16.564922,-23.451197,-28.987059,-49.205505
5102500000,-45.250286,-36.954857,16.555033,-23.386623,-28.695255,-60.341476
5103750000,-45.26825,-50.496605,16.540987,-23.489861,-28.727264,-73.986465
5105000000,-45.747581,-61.702057,16.528667,-23.654526,-29.218912,-85.35659
5106250000,-45.994976,-72.902718,16.51786,-23.64259,-29.477118,-96.545296
5107500000,-46.846962,-84.777992,16.507734,-23.711121,-30.339228,-108.48911
5108750000,-47.819202,-90.751427,16.49527,-23.757147,-31.323931,-114.50858
5110000000,-48.036816,-96.352295,16.484287,-23.978228,-31.552526,-120.33053
5111250000,-48.341747,-103.73473,16.474655,-24.044771,-31.867092,-127.77951
5112500000,-48.504055,-113.17275,16.467052,-24.059704,-32.037003,-137.23247
5113750000,-49.583294,-121.82008,16.459124,-24.136099,-33.124168,-145.95618
5115000000,-50.221684,-121.59328,16.452137,-24.2075,-33.769547,-145.80078
5116250000,-49.575802,-124.745,16.443789,-24.295057,-33.132011,-149.04005
5117500000,-48.875027,-135.12556,16.440317,-24.259409,-32.434708,-159.38496
5118750000,-49.192806,-148.19704,16.437675,-24.261478,-32.755131,-172.45853
5120000000,-49.973171,-154.9828,16.432371,-24.422371,-33.540802,-179.40518
5121250000,-49.57399,-160.91835,16.429951,-24.438736,-33.144039,174.64291
5122500000,-49.552559,-173.51549,16.430527,-24.490278,-33.122036,161.99423
5123750000,-50.006649,174.72667,16.434752,-24.481432,-33.571899,150.24522
5125000000,-50.820427,165.80414,16.43646,-24.578983,-34.383965,141.22516
5126250000,-50.840878,159.21707,16.444094,-24.532169,-34.396786,134.68489
5127500000,-50.69886,146.8533,16.452097,-24.467064,-34.246761,122.38624
5128750000,-51.140572,132.62575,16.459845,-24.662472,-34.680729,107.96327
5130000000,-51.956123,120.33213,16.468771,-24.65634,-35.487354,95.675797
5131250000,-52.368458,110.13701,16.476616,-24.756317,-35.891842,85.380692
5132500000,-52.541142,94.75412,16.488197,-24.965014,-36.052944,69.789108
5133750000,-53.404884,78.219673,16.499874,-24.959295,-36.905014,53.26038
5135000000,-54.524185,60.505894,16.513288,-25.032808,-38.010899,35.47308
5136250000,-55.972191,48.095425,16.526207,-25.205601,-39.445984,22.889826
5137500000,-56.51498,38.736206,16.539331,-25.317266,-39.975647,13.418943
5138750000,-55.62151,24.15904,16.552401,-25.389973,-39.069107,-1.2309334
5140000000,-54.678078,-1.700909,16.566952,-25.486387,-38.111126,-27.187296
5141250000,-55.201378,-31.053022,16.581831,-25.465693,-38.619549,-56.518711
5142500000,-56.298637,-49.868462,16.597828,-25.535233,-39.700809,-75.403694
5143750000,-55.518978,-63.640785,16.614883,-25.510616,-38.904095,-89.151398
5145000000,-54.523262,-87.202042,16.630232,-25.69754,-37.893032,-112.89959
5146250000,-54.861115,-111.7107,16.647364,-25.872652,-38.213753,-137.58336
5147500000,-56.20763,-125.39204,16.66337,-25.99539,-39.544258,-151.38744
5148750000,-55.836998,-129.5744,16.682566,-26.240278,-39.154434,-155.81468
5150000000,-54.823647,-141.31149,16.698507,-26.093866,-38.125137,-167.40535
5151250000,-54.265831,-155.32126,16.717588,-26.294443,-37.548244,178.38429
5152500000,-54.366901,-171.32881,16.734722,-26.506454,-37.632179,162.16475
5153750000,-55.65369,179.26941,16.751553,-26.652287,-38.902138,152.61713
5155000000,-55.758076,-178.81366,16.766771,-26.882296,-38.991302,154.30405
5156250000,-55.057941,177.44991,16.781332,-27.105,-38.276611,150.34489
5157500000,-54.398006,171.81529,16.796459,-27.278206,-37.601547,144.53709
5158750000,-54.06065,167.6165,16.810732,-27.422474,-37.24992,140.19402
5160000000,-53.042671,168.55098,16.821226,-27.608727,-36.221443,140.94225
5161250000,-51.033398,163.3593,16.835344,-27.70138,-34.198055,135.65793
5162500000,-49.389545,152.1842,16.846382,-27.786173,-32.543163,124.39802
5163750000,-47.940475,139.94136,16.854822,-28.101597,-31.085651,111.83976
5165000000,-46.954124,124.18105,16.864143,-28.236252,-30.089983,95.944801
5166250000,-46.464161,109.60471,16.870087,-28.525999,-29.594074,81.078712
5167500000,-46.436901,95.542099,16.878307,-28.585857,-29.558594,66.956245
5168750000,-46.365974,86.275169,16.882919,-28.643814,-29.483055,57.631355
5170000000,-45.690002,74.221581,16.889992,-28.76543,-28.800011,45.456154
5171250000,-45.592094,59.97081,16.894251,-29.186525,-28.697842,30.784277
5172500000,-45.973152,47.025898,16.898523,-29.257847,-29.074627,17.768053
5173750000,-46.465973,40.358772,16.903133,-29.560755,-29.562841,10.798017
5175000000,-45.595802,33.196453,16.903584,-29.697397,-28.692219,3.4990592
5176250000,-45.093712,17.740942,16.905151,-29.868916,-28.188562,-12.127975
5177500000,-45.43948,4.0142164,16.906252,-30.114687,-28.533226,-26.10047
5178750000,-45.579857,-6.139318,16.904774,-30.368711,-28.675083,-36.50803
5180000000,-45.460728,-19.523634,16.903955,-30.514612,-28.556772,-50.038246
5181250000,-45.947025,-34.13377,16.902765,-30.64916,-29.044262,-64.782928
5182500000,-46.704155,-45.381355,16.901165,-30.822533,-29.80299,-76.203888
5183750000,-47.132172,-54.999916,16.896963,-30.978146,-30.23521,-85.978065
5185000000,-47.550541,-67.411224,16.893621,-31.254457,-30.656921,-98.66568
5186250000,-48.38493,-78.078552,16.887215,-31.502869,-31.497717,-109.58142
5187500000,-48.974514,-86.830307,16.882362,-31.503231,-32.092152,-118.33353
5188750000,-49.299519,-94.638939,16.874956,-31.714109,-32.424561,-126.35305
5190000000,-49.134411,-105.91533,16.870394,-31.743643,-32.264015,-137.65897
5191250000,-49.288239,-119.88198,16.862698,-31.983604,-32.425541,-151.86559
5192500000,-49.891998,-136.68176,16.855669,-32.005905,-33.036327,-168.68767
5193750000,-50.886631,-151.17972,16.847549,-31.963629,-34.039082,176.85664
5195000000,-51.910236,-164.8689,16.839624,-32.194324,-35.070614,162.93678
5196250000,-52.696442,-178.67572,16.830214,-32.462254,-35.866226,148.86203
5197500000,-53.672024,164.46558,16.819712,-32.575863,-36.85231,131.88971
5198750000,-54.589985,149.47083,16.810379,-32.723392,-37.779606,116.74743
5200000000,-55.709675,124.20129,16.803049,-32.811836,-38.906624,91.389465
5201250000,-58.701946,107.55892,16.787243,-32.959457,-41.914703,74.599464
5202500000,-59.835255,103.32094,16.774921,-32.994347,-43.060333,70.326591
5203750000,-58.47401,85.847481,16.761652,-33.044846,-41.712357,52.802635
5205000000,-57.871513,58.454807,16.74682,-33.214928,-41.124695,25.239876
5206250000,-57.127735,31.984106,16.733395,-33.180862,-40.394341,-1.1967524
5207500000,-56.57695,-2.0903983,16.723246,-33.370049,-39.853706,-35.460445
5208750000,-57.432137,-32.470291,16.7117,-33.501793,-40.720436,-65.972084
5210000000,-58.072674,-56.188526,16.699804,-33.589348,-41.372868,-89.777878
5211250000,-59.019638,-81.843788,16.689213,-33.541111,-42.330425,-115.3849
5212500000,-60.507641,-101.54057,16.678709,-33.553905,-43.828934,-135.09448
5213750000,-62.139824,-131.61528,16.669128,-33.726292,-45.470695,-165.34157
5215000000,-67.90004,-156.44498,16.661737,-33.840103,-51.2383,169.71492
5216250000,-73.659111,168.50601,16.652699,-33.789143,-57.006409,134.71687
5217500000,-74.824158,32.336452,16.646654,-33.911362,-58.177502,-1.5749093
5218750000,-69.892349,-0.11187358,16.640614,-33.927086,-53.25174,-34.03896
5220000000,-63.848026,2.5322731,16.635506,-34.053452,-47.212521,-31.521179
5221250000,-58.001976,-19.63343,16.631962,-34.117664,-41.370014,-53.751095
5222500000,-55.463703,-50.513134,16.629602,-34.219334,-38.834099,-84.732468
5223750000,-54.233704,-74.10524,16.626839,-34.30291,-37.606865,-108.40815
5225000000,-54.043041,-100.0193,16.626188,-34.416649,-37.416855,-134.43594
5226250000,-55.547241,-117.30463,16.625008,-34.517635,-38.922234,-151.82227
5227500000,-56.972389,-123.72865,16.625628,-34.576031,-40.346764,-158.30467
5228750000,-57.163216,-123.69994,16.627626,-34.499615,-40.535591,-158.19955
5230000000,-56.343666,-126.61813,16.629341,-34.695339,-39.714325,-161.31348
5231250000,-55.450504,-137.25421,16.632685,-34.76516,-38.817818,-172.01936
5232500000,-55.730431,-146.95531,16.636211,-34.71257,-39.094219,178.33212
5233750000,-55.558445,-154.84839,16.641222,-34.866142,-38.917225,170.28548
5235000000,-56.103523,-165.39363,16.646345,-34.871307,-39.45718,159.73506
5236250000,-57.866711,-163.8195,16.653778,-35.029198,-41.212933,161.15129
5237500000,-55.722092,-152.81595,16.661301,-35.096535,-39.060791,172.08752
5238750000,-53.333958,-168.69235,16.669437,-35.215244,-36.66452,156.09242
5240000000,-53.281513,174.35796,16.678785,-35.294853,-36.60273,139.06311
5241250000,-53.450615,160.17638,16.686783,-35.434559,-36.763832,124.74182
5242500000,-54.909187,143.96576,16.69718,-35.66824,-38.212009,108.29752
5243750000,-57.657948,141.56229,16.70731,-35.71072,-40.950638,105.85156
5245000000,-59.159256,152.6499,16.718544,-35.876698,-42.440712,116.7732
5246250000,-58.229939,163.12749,16.730196,-35.941814,-41.499744,127.18568
5247500000,-56.366516,165.87907,16.742908,-36.006367,-39.623608,129.8727
5248750000,-55.114651,160.12643,16.754393,-36.130272,-38.360256,123.99617
5250000000,-53.851269,158.08804,16.76532,-36.327412,-37.085949,121.76065
END,,,,,,