Freq(Hz),S21(DB),S21(DEG),"""a1,1""(DB)","""a1,1""(DEG)","""b2,1""(DB)","""b2,1""(DEG)"
5000000000,-26.218149,-100.22573,16.303387,-29.289457,-9.9147625,-129.51518
5001250000,-26.286686,-101.17232,16.285608,139.62935,-10.001078,38.457047
5002500000,-26.227163,-101.89884,16.28364,139.49937,-9.9435244,37.600529
5003750000,-26.164751,-102.78223,16.283161,139.37927,-9.8815889,36.597042
5005000000,-26.000105,-103.66532,16.284702,139.34003,-9.7154045,35.674702
5006250000,-25.838133,-105.64143,16.282381,139.2861,-9.5557518,33.644672
5007500000,-25.834339,-107.71874,16.280842,139.12959,-9.5534992,31.410852
5008750000,-25.820675,-109.05001,16.278858,138.95499,-9.5418177,29.90497
5010000000,-25.756216,-110.843,16.280931,138.82697,-9.4752846,27.983974
5011250000,-25.74754,-112.59267,16.280531,138.77271,-9.4670086,26.18004
5012500000,-25.692539,-114.54615,16.281313,138.73476,-9.4112272,24.188597
5013750000,-25.764887,-117.05002,16.280132,138.50046,-9.4847536,21.450443
5015000000,-25.89319,-118.59673,16.27796,138.31908,-9.6152315,19.722342
5016250000,-25.977009,-120.33607,16.277212,138.0643,-9.6997967,17.728235
5017500000,-26.126175,-121.71318,16.278427,138.04234,-9.8477488,16.329163
5018750000,-26.233652,-122.72634,16.278442,138.0329,-9.9552097,15.30654
5020000000,-26.280081,-123.6566,16.27887,137.82678,-10.001212,14.170174
5021250000,-26.29809,-125.18785,16.27771,137.71391,-10.020382,12.526051
5022500000,-26.397537,-126.95278,16.276571,137.79015,-10.120966,10.837374
5023750000,-26.595152,-128.37056,16.277151,137.69489,-10.318001,9.3243179
5025000000,-26.73834,-128.97655,16.273598,137.53252,-10.464744,8.5559616
5026250000,-26.789274,-129.75658,16.277081,137.31073,-10.512194,7.5541644
5027500000,-26.841881,-130.99686,16.277996,137.1931,-10.563883,6.1962395
5028750000,-26.950327,-132.65849,16.279493,137.02058,-10.670835,4.3620958
5030000000,-27.154202,-133.75351,16.282095,136.91449,-10.872108,3.1609769
5031250000,-27.30813,-134.86356,16.285227,136.91759,-11.022902,2.0540457
5032500000,-27.546154,-135.79376,16.288029,136.79993,-11.258126,1.006173
5033750000,-27.801752,-136.02388,16.290579,136.58669,-11.511173,0.56279576
5035000000,-27.935753,-135.5509,16.296555,136.46364,-11.639197,0.91275543
5036250000,-27.936543,-135.51988,16.298376,136.41074,-11.638167,0.89084303
5037500000,-27.956722,-136.13165,16.301825,136.44954,-11.654897,0.31787688
5038750000,-27.976816,-136.90413,16.3027,136.28694,-11.674115,-0.6171788
5040000000,-28.058006,-138.16837,16.305655,136.15459,-11.75235,-2.0137672
5041250000,-28.235495,-139.21159,16.311607,136.09581,-11.923887,-3.1157794
5042500000,-28.412807,-139.29756,16.312145,135.92503,-12.100663,-3.3725412
5043750000,-28.426773,-139.67889,16.316605,135.99313,-12.110168,-3.6857617
5045000000,-28.499594,-141.28912,16.319618,135.74255,-12.179975,-5.5465741
5046250000,-28.818892,-142.75151,16.323847,135.59061,-12.495044,-7.1609068
5047500000,-29.184288,-142.86832,16.327549,135.4865,-12.856739,-7.381813
5048750000,-29.511412,-141.89882,16.33152,135.28458,-13.179893,-6.6142473
5050000000,-29.575165,-140.29367,16.334391,135.14432,-13.240775,-5.1493421
5051250000,-29.550484,-140.9416,16.342968,135.18698,-13.207515,-5.7546325
5052500000,-29.918722,-141.82431,16.346462,135.14066,-13.57226,-6.6836438
5053750000,-30.3466,-140.2382,16.348806,134.99966,-13.997793,-5.2385387
5055000000,-30.59729,-137.42784,16.354828,134.93156,-14.242462,-2.4962723
5056250000,-30.641136,-134.04611,16.35891,134.80595,-14.282228,0.7598545
5057500000,-30.435518,-131.16956,16.362383,134.75293,-14.073136,3.5833755
5058750000,-30.137453,-129.22327,16.365839,134.46333,-13.771613,5.2400708
5060000000,-29.812553,-127.86891,16.372543,134.4854,-13.440009,6.6164846
5061250000,-29.436239,-127.37862,16.379257,134.43884,-13.056982,7.0602303
5062500000,-29.122446,-127.32802,16.38109,134.37714,-12.741356,7.0491352
5063750000,-28.782927,-127.5232,16.384081,134.11508,-12.398846,6.5918822
5065000000,-28.4729,-128.77467,16.388365,133.96002,-12.084536,5.1853542
5066250000,-28.338757,-129.81921,16.392311,133.88205,-11.946445,4.0628247
5067500000,-28.175013,-130.1588,16.397411,133.9623,-11.7776,3.8034894
5068750000,-27.936499,-130.63451,16.399666,133.86624,-11.536834,3.2317479
5070000000,-27.630516,-131.61053,16.403696,133.61914,-11.22682,2.0086002
5071250000,-27.392778,-133.46365,16.410089,133.58963,-10.982689,0.12597984
5072500000,-27.300657,-135.66463,16.414188,133.5217,-10.88647,-2.1429121
5073750000,-27.314636,-136.65343,16.419237,133.43358,-10.895399,-3.219841
5075000000,-27.168381,-137.32101,16.423695,133.27736,-10.744685,-4.0436521
5076250000,-27.042931,-138.63861,16.427204,133.13153,-10.615726,-5.5070691
5077500000,-26.886871,-139.58334,16.431252,133.06822,-10.45562,-6.5151219
5078750000,-26.669413,-141.32738,16.433989,133.02492,-10.235424,-8.3024731
5080000000,-26.520313,-143.57495,16.437263,132.81364,-10.083049,-10.761312
5081250000,-26.483522,-146.25464,16.439701,132.8116,-10.04382,-13.443043
5082500000,-26.52206,-148.41016,16.44146,132.59718,-10.080602,-15.812963
5083750000,-26.598969,-150.42039,16.445812,132.54547,-10.153156,-17.874935
5085000000,-26.692991,-152.1534,16.450464,132.36717,-10.242525,-19.786217
5086250000,-26.812019,-153.69658,16.455994,132.26509,-10.356025,-21.431477
5087500000,-26.966722,-154.78319,16.458447,132.26445,-10.508275,-22.518723
5088750000,-27.042885,-155.21721,16.464266,132.14354,-10.57862,-23.073687
5090000000,-26.998381,-156.27835,16.466972,132.01408,-10.531408,-24.264265
5091250000,-27.094206,-157.70026,16.471237,132.00381,-10.622968,-25.696438
5092500000,-27.171806,-158.37798,16.471638,131.83029,-10.700169,-26.547688
5093750000,-27.186638,-158.91844,16.473679,131.83743,-10.712958,-27.081007
5095000000,-27.156399,-159.80627,16.474646,131.69353,-10.681752,-28.112745
5096250000,-27.09244,-160.94992,16.481173,131.67827,-10.611266,-29.271664
5097500000,-27.092127,-162.51991,16.483288,131.57268,-10.60884,-30.947239
5098750000,-27.085848,-163.96617,16.486471,131.45358,-10.599377,-32.512592
5100000000,-27.162729,-166.0611,16.488016,131.34653,-10.674712,-34.714569
5101250000,-27.30818,-167.03316,16.489655,131.28879,-10.818525,-35.744358
5102500000,-27.326675,-167.98288,16.492336,130.97916,-10.834341,-37.003727
5103750000,-27.319216,-169.6441,16.491522,130.93073,-10.827694,-38.713367
5105000000,-27.427256,-171.5457,16.493546,130.94511,-10.933711,-40.60059
5106250000,-27.580526,-173.07346,16.496384,130.90367,-11.084141,-42.169781
5107500000,-27.728611,-174.47588,16.502113,130.70737,-11.226497,-43.768501
5108750000,-27.904228,-175.61575,16.501221,130.526,-11.403008,-45.089752
5110000000,-28.030539,-176.60986,16.504623,130.20515,-11.525915,-46.404694
5111250000,-28.195387,-177.82231,16.508741,130.01843,-11.686646,-47.803883
5112500000,-28.27055,-178.7538,16.510551,129.96793,-11.759998,-48.78587
5113750000,-28.374161,179.16045,16.515631,129.78494,-11.858529,-51.054611
5115000000,-28.724041,177.19209,16.515509,129.61873,-12.208531,-53.189178
5116250000,-29.018854,176.46341,16.516134,129.48593,-12.502719,-54.050667
5117500000,-29.387249,174.95241,16.51436,129.42068,-12.872888,-55.62693
5118750000,-29.865442,175.00087,16.515203,129.18231,-13.350238,-55.816837
5120000000,-30.229635,175.80461,16.521574,128.97731,-13.708061,-55.218105
5121250000,-30.542007,176.62393,16.522625,128.79868,-14.019383,-54.577404
5122500000,-30.862881,178.25587,16.52516,128.65103,-14.337721,-53.093098
5123750000,-30.996161,-179.3175,16.533392,128.61868,-14.462768,-50.698818
5125000000,-30.905985,-177.08737,16.54108,128.53908,-14.364904,-48.54829
5126250000,-30.632401,-176.60669,16.547428,128.33215,-14.084972,-48.274536
5127500000,-30.51672,-177.33374,16.551479,128.31526,-13.965241,-49.018497
5128750000,-30.485931,-178.39894,16.555449,128.23784,-13.930483,-50.161102
5130000000,-30.56918,179.78503,16.563602,128.077,-14.005577,-52.137978
5131250000,-30.987059,178.74353,16.568493,127.95355,-14.418564,-53.302929
5132500000,-31.369963,-179.70592,16.577536,127.7899,-14.792426,-51.916
5133750000,-31.448542,-177.38828,16.587601,127.69402,-14.860941,-49.694256
5135000000,-31.294666,-176.44745,16.591717,127.52004,-14.702949,-48.927414
5136250000,-31.284718,-177.06668,16.598064,127.54664,-14.686653,-49.520039
5137500000,-31.551327,-176.85426,16.605408,127.44677,-14.945921,-49.407501
5138750000,-31.737518,-175.00749,16.611616,127.26716,-15.125903,-47.740334
5140000000,-31.701202,-172.32018,16.619068,127.11712,-15.082134,-45.20306
5141250000,-31.38069,-170.8725,16.621422,126.90773,-14.759267,-43.96476
5142500000,-31.159704,-171.38414,16.62808,126.9278,-14.531625,-44.45636
5143750000,-31.17107,-172.38771,16.632345,126.79385,-14.538724,-45.593864
5145000000,-31.454252,-172.05737,16.639296,126.58131,-14.814957,-45.476059
5146250000,-31.617224,-168.48079,16.646652,126.39339,-14.970572,-42.087399
5147500000,-31.191669,-164.96074,16.650517,126.20526,-14.541152,-38.755478
5148750000,-30.628038,-164.16045,16.657818,126.1786,-13.970222,-37.981846
5150000000,-30.15246,-164.52841,16.661863,126.16103,-13.490595,-38.367397
5151250000,-29.734318,-165.91248,16.666132,126.0069,-13.068187,-39.905579
5152500000,-29.513103,-167.58086,16.675047,125.84439,-12.838057,-41.73645
5153750000,-29.315826,-168.92966,16.683153,125.65458,-12.632673,-43.275085
5155000000,-29.163374,-170.53609,16.688688,125.42975,-12.474686,-45.106342
5156250000,-29.111313,-172.13809,16.694796,125.353,-12.416516,-46.785088
5157500000,-29.116674,-172.46625,16.699408,125.21398,-12.417266,-47.252266
5158750000,-28.847239,-172.52306,16.70768,125.0968,-12.13956,-47.42625
5160000000,-28.646299,-174.27364,16.712671,-65.788803,-11.933629,119.93758
5161250000,-28.704947,-175.76797,16.717844,-65.821022,-11.987104,118.411
5162500000,-28.553362,-175.76036,16.721926,-65.979179,-11.831436,118.26047
5163750000,-28.236862,-177.5305,16.729893,-66.132797,-11.50697,116.33672
5165000000,-28.189133,179.94431,16.73291,-66.344727,-11.456223,113.59956
5166250000,-28.215607,178.49356,16.73918,-66.494995,-11.476428,111.99855
5167500000,-28.159248,177.20111,16.74577,-66.465042,-11.413478,110.73606
5168750000,-28.142895,175.70676,16.750643,-66.610565,-11.392252,109.09618
5170000000,-28.159519,174.64192,16.75786,-66.66317,-11.401659,107.97875
5171250000,-28.054617,173.89371,16.761248,-66.960945,-11.29337,106.93277
5172500000,-27.89082,172.17609,16.766426,-67.082237,-11.124393,105.09386
5173750000,-27.853252,170.12538,16.772919,-67.222435,-11.080333,102.90294
5175000000,-27.789028,168.09827,16.774815,-67.34066,-11.014215,100.75761
5176250000,-27.796644,165.58594,16.78104,-67.489449,-11.015605,98.096474
5177500000,-27.940266,163.21762,16.785732,-67.704491,-11.154534,95.51313
5178750000,-28.115852,162.0424,16.789562,-67.757545,-11.32629,94.284851
5180000000,-28.079582,160.97282,16.794378,-67.975983,-11.285205,92.996841
5181250000,-28.049446,158.56294,16.799345,-67.997047,-11.250102,90.565895
5182500000,-28.186169,155.89656,16.805862,-68.123848,-11.380306,87.772705
5183750000,-28.365952,153.58783,16.810675,-68.329483,-11.555277,85.258339
5185000000,-28.580236,151.14113,16.813732,-68.454018,-11.766505,82.687119
5186250000,-28.932737,148.96658,16.822552,-68.527512,-12.110186,80.439064
5187500000,-29.322657,147.19997,16.827723,-68.632103,-12.494934,78.567863
5188750000,-29.804672,146.20264,16.83219,-68.73159,-12.972484,77.471046
5190000000,-30.246067,146.08401,16.840887,-68.92585,-13.405179,77.158173
5191250000,-30.724825,146.76245,16.845264,-69.150177,-13.87956,77.612282
5192500000,-30.968384,149.03647,16.852858,-69.234947,-14.115525,79.801521
5193750000,-30.921547,150.09525,16.861204,-69.322533,-14.060343,80.77272
5195000000,-30.884361,150.03131,16.866571,-69.496857,-14.01779,80.534454
5196250000,-30.880762,149.06656,16.871244,-69.756218,-14.009519,79.310341
5197500000,-30.924864,147.0703,16.8764,-69.856155,-14.048463,77.214134
5198750000,-31.461056,144.60379,16.88451,-70.010071,-14.576545,74.593727
5200000000,-32.012745,145.96545,16.889765,-70.082214,-15.122983,75.883232
5201250000,-32.244835,146.90869,16.89035,-70.091408,-15.354484,76.817291
5202500000,-32.640957,147.90091,16.892666,-70.243813,-15.74829,77.657097
5203750000,-32.848682,150.38579,16.891356,-70.362541,-15.957326,80.023254
5205000000,-32.872662,151.67654,16.893885,-70.357086,-15.978774,81.319435
5206250000,-33.001442,152.12001,16.89609,-70.575951,-16.105352,81.54406
5207500000,-33.226437,153.81541,16.897715,-70.711891,-16.32872,83.103523
5208750000,-33.247169,155.05191,16.896769,-70.79689,-16.350401,84.255013
5210000000,-33.523079,155.76617,16.895798,-70.940842,-16.627281,84.825333
5211250000,-33.800957,159.43817,16.896694,-71.09127,-16.904263,88.346909
5212500000,-33.573921,163.09561,16.896538,-71.230133,-16.677383,91.865479
5213750000,-33.324268,165.04622,16.897514,-71.394249,-16.426754,93.651978
5215000000,-33.05061,166.48573,16.899456,-71.486397,-16.15115,94.999329
5216250000,-32.741779,166.96504,16.901585,-71.72364,-15.840197,95.241409
5217500000,-32.638939,166.57213,16.901289,-71.88533,-15.73765,94.686798
5218750000,-32.745369,166.85211,16.903303,-71.903931,-15.842064,94.948181
5220000000,-32.889839,169.98737,16.90218,-72.035858,-15.987662,97.951515
5221250000,-32.353542,174.01437,16.90345,-72.180183,-15.450092,101.83418
5222500000,-31.660515,173.55313,16.905001,-72.385231,-14.755514,101.16789
5223750000,-31.36631,172.138,16.906147,-72.520584,-14.460162,99.617416
5225000000,-31.234486,171.34695,16.906366,-72.528183,-14.328119,98.818771
5226250000,-31.099258,171.46986,16.906597,-72.676796,-14.192661,98.793068
5227500000,-30.910269,171.46643,16.905676,-72.866623,-14.004595,98.599815
5228750000,-30.732666,171.87985,16.907576,-73.06916,-13.82509,98.810692
5230000000,-30.449141,172.51175,16.907248,-73.216003,-13.541894,99.295738
5231250000,-30.02667,172.02599,16.907356,-73.27301,-13.119315,98.752975
5232500000,-29.791315,170.98834,16.909496,-73.43808,-12.88182,97.550262
5233750000,-29.545582,170.49301,16.908678,-73.642761,-12.636903,96.85025
5235000000,-29.247665,169.68535,16.908991,-73.690941,-12.338675,95.994423
5236250000,-28.976099,168.46161,16.906191,-73.875542,-12.069908,94.586067
5237500000,-28.787218,167.19592,16.906145,-74.045296,-11.881074,93.150627
5238750000,-28.554108,166.34596,16.907185,-74.16687,-11.646924,92.1791
5240000000,-28.31089,164.97339,16.906309,-74.185402,-11.404581,90.787987
5241250000,-28.061489,163.50266,16.905226,-74.390579,-11.156263,89.112076
5242500000,-27.868244,161.47588,16.905619,-74.472862,-10.962626,87.003021
5243750000,-27.764624,159.66365,16.906475,-74.53624,-10.858149,85.127419
5245000000,-27.68919,158.40057,16.905508,-74.730133,-10.783681,83.670441
5246250000,-27.508617,157.35959,16.90575,-74.94799,-10.602868,82.411591
5247500000,-27.307543,155.50883,16.903305,-75.048264,-10.404237,80.460571
5248750000,-27.24523,153.50093,16.9013,-75.16832,-10.343929,78.332626
5250000000,-27.199234,152.48311,16.90163,-75.309952,-10.297605,77.173164
END,,,,,,