Freq(Hz),S12(DB),S12(DEG)
1500000000,-32.264702,109.18498
1502500000,-33.531456,113.10232
1505000000,-33.842644,121.9237
1507500000,-32.472725,129.17439
1510000000,-30.596802,123.2865
1512500000,-30.501665,115.65565
1515000000,-30.459188,107.12498
1517500000,-31.251062,100.51008
1520000000,-32.31707,108.89165
1522500000,-31.128635,110.41322
1525000000,-30.093557,112.26324
1527500000,-28.870693,100.74754
1530000000,-29.07271,96.058838
1532500000,-28.37528,91.479523
1535000000,-28.237076,82.812225
1537500000,-27.767138,74.785645
1540000000,-28.430355,62.74472
1542500000,-29.322174,56.624111
1545000000,-29.627041,56.845901
1547500000,-29.309601,46.90807
1550000000,-30.552122,41.099701
1552500000,-31.397491,38.303276
1555000000,-31.782612,36.959877
1557500000,-31.34289,32.62373
1560000000,-32.128815,17.785252
1562500000,-34.45491,11.556343
1565000000,-37.176228,9.3672085
1567500000,-42.205868,30.094503
1570000000,-41.885132,64.364357
1572500000,-35.406006,64.551445
1575000000,-35.212009,48.636623
1577500000,-35.551888,51.725231
1580000000,-34.529514,44.125874
1582500000,-35.91864,43.732269
1585000000,-36.40078,52.846687
1587500000,-33.641716,45.457298
1590000000,-34.702599,36.584023
1592500000,-35.239479,47.574928
1595000000,-33.379154,40.569439
1597500000,-34.662064,33.239357
1600000000,-34.157211,46.627045
1602500000,-33.211224,40.977791
1605000000,-32.379211,36.093597
1607500000,-31.388332,34.292614
1610000000,-30.849211,19.620884
1612500000,-32.659409,15.883469
1615000000,-31.288454,19.461416
1617500000,-32.173229,14.494821
1620000000,-31.295176,17.652353
1622500000,-30.109556,6.3803658
1625000000,-30.729181,2.3295498
1627500000,-30.631453,0.098895408
1630000000,-29.904255,-4.6032004
1632500000,-29.272816,-11.591966
1635000000,-29.654526,-17.780859
1637500000,-29.758665,-27.23963
1640000000,-30.286148,-31.508352
1642500000,-29.673792,-35.176132
1645000000,-30.257542,-47.741283
1647500000,-32.122601,-51.539635
1650000000,-31.863832,-49.195721
1652500000,-32.247814,-50.649834
1655000000,-31.962263,-55.557365
1657500000,-31.516005,-66.903114
1660000000,-32.58004,-78.608467
1662500000,-35.480297,-89.310326
1665000000,-38.194977,-65.360626
1667500000,-35.95071,-60.806866
1670000000,-35.691345,-63.879276
1672500000,-35.043087,-68.088158
1675000000,-36.521603,-69.615219
1677500000,-35.736713,-74.056702
1680000000,-36.701817,-73.882652
1682500000,-36.579296,-68.582405
1685000000,-35.27895,-72.991714
1687500000,-34.870304,-80.991135
1690000000,-35.056171,-92.730591
1692500000,-36.147629,-110.89988
1695000000,-42.951012,-125.85574
1697500000,-43.579994,-65.120918
1700000000,-40.790161,-69.76622
1702500000,-39.905605,-62.979248
1705000000,-37.260643,-54.925587
1707500000,-37.010094,-74.195427
1710000000,-37.436741,-70.834007
1712500000,-37.292641,-72.923065
1715000000,-37.975655,-66.275536
1717500000,-34.644569,-64.307953
1720000000,-35.046883,-77.121483
1722500000,-34.582314,-67.496094
1725000000,-32.149868,-77.736847
1727500000,-31.223257,-91.597008
1730000000,-31.993765,-97.839981
1732500000,-30.96332,-107.00713
1735000000,-31.223957,-113.01798
1737500000,-31.148941,-124.3214
1740000000,-31.24164,-130.2766
1742500000,-31.393547,-145.19785
1745000000,-33.359447,-156.73521
1747500000,-35.861286,-162.24789
1750000000,-38.584572,-144.25165
1752500000,-34.972916,-136.95291
1755000000,-35.311909,-145.89546
1757500000,-36.235859,-149.7343
1760000000,-35.844566,-149.43443
1762500000,-35.603302,-152.131
1765000000,-35.840843,-155.61681
1767500000,-35.494675,-164.14464
1770000000,-37.89349,-163.39365
1772500000,-38.88483,-157.19453
1775000000,-35.653328,-140.41501
1777500000,-33.723713,-152.48033
1780000000,-33.396694,-169.56396
1782500000,-34.26268,-169.35449
1785000000,-33.398754,-177.37463
1787500000,-33.617344,172.91675
1790000000,-33.977444,168.77419
1792500000,-32.684795,168.96574
1795000000,-32.192318,145.90227
1797500000,-33.683815,131.41013
1800000000,-35.532146,126.75085
1802500000,-36.043259,119.65833
1805000000,-38.263626,99.948326
1807500000,-42.890339,107.31312
1810000000,-41.160366,114.42344
1812500000,-44.303917,95.746712
1815000000,-49.851879,103.84341
1817500000,-49.477612,-161.35211
1820000000,-41.967873,156.87805
1822500000,-44.841408,141.42799
1825000000,-48.637386,-173.98375
1827500000,-41.912163,-172.2346
1830000000,-39.567562,162.43451
1832500000,-43.619308,158.7218
1835000000,-42.786991,165.4155
1837500000,-40.060596,176.54395
1840000000,-37.454487,166.57869
1842500000,-36.808022,152.4213
1845000000,-36.46199,142.60559
1847500000,-37.314243,132.21021
1850000000,-36.105503,130.47607
1852500000,-36.754482,111.5103
1855000000,-37.94825,106.37088
1857500000,-39.523457,93.228127
1860000000,-42.809517,86.827621
1862500000,-44.441071,110.96288
1865000000,-45.481312,139.31348
1867500000,-42.003433,132.71864
1870000000,-41.796177,153.14114
1872500000,-38.259083,149.37985
1875000000,-35.734531,143.23773
1877500000,-34.355862,125.5389
1880000000,-33.852665,118.82352
1882500000,-33.762508,103.574
1885000000,-33.60733,101.08802
1887500000,-32.989399,88.934525
1890000000,-34.263241,80.856331
1892500000,-33.215157,84.964439
1895000000,-31.546419,75.342018
1897500000,-31.315485,59.611713
1900000000,-31.704506,45.094509
1902500000,-32.688732,33.899075
1905000000,-33.647163,29.069025
1907500000,-33.372795,26.605047
1910000000,-33.602535,17.565447
1912500000,-34.468567,3.8553195
1915000000,-35.806576,-2.6207778
1917500000,-38.043568,6.0476508
1920000000,-35.083008,7.0047903
1922500000,-34.665165,-6.5841951
1925000000,-33.769833,-20.35273
1927500000,-34.970421,-40.802227
1930000000,-37.835537,-49.503258
1932500000,-37.995518,-52.170856
1935000000,-38.751236,-66.029083
1937500000,-40.148758,-70.075897
1940000000,-40.263306,-97.735161
1942500000,-44.863937,-129.98462
1945000000,-65.729553,-136.92175
1947500000,-53.952133,-51.988945
1950000000,-49.399273,-18.177095
1952500000,-48.732052,-67.237236
1955000000,-66.065628,-116.68128
1957500000,-48.799549,-52.050228
1960000000,-54.132038,178.26613
1962500000,-48.614262,123.78288
1965000000,-44.382694,68.399979
1967500000,-43.703152,52.209442
1970000000,-43.245708,34.291183
1972500000,-40.320713,30.734373
1975000000,-40.954124,15.008577
1977500000,-39.245766,8.8544321
1980000000,-37.296803,-12.937502
1982500000,-40.025322,-33.584469
1985000000,-42.135723,-22.006401
1987500000,-41.118847,-0.68980199
1990000000,-37.424129,-16.309118
1992500000,-37.673977,-29.727278
1995000000,-37.7076,-32.732265
1997500000,-36.236176,-40.670998
2000000000,-35.844193,-55.779591
END

