Freq(Hz),S21(DB),S21(DEG)
6000000000,-57.780197,-45.458328
6003921568.6275,-58.270145,-100.65366
6007843137.2549,-58.991371,-126.62682
6011764705.8824,-57.652256,-144.99002
6015686274.5098,-53.953236,-176.56721
6019607843.1373,-52.503181,130.4469
6023529411.7647,-54.814133,80.069405
6027450980.3922,-60.025352,41.144379
6031372549.0196,-65.132233,70.548065
6035294117.6471,-59.589809,69.975548
6039215686.2745,-56.941441,39.80653
6043137254.902,-55.552643,17.761515
6047058823.5294,-53.19276,-13.670718
6050980392.1569,-52.70179,-47.615822
6054901960.7843,-51.611801,-77.925453
6058823529.4118,-51.744942,-114.72253
6062745098.0392,-52.477455,-141.57936
6066666666.6667,-52.210052,-167.48322
6070588235.2941,-52.048096,162.50137
6074509803.9216,-51.7342,127.52253
6078431372.549,-54.787052,97.89444
6082352941.1765,-54.156521,88.444008
6086274509.8039,-52.504654,57.260971
6090196078.4314,-52.715141,21.97114
6094117647.0588,-53.051212,-11.823014
6098039215.6863,-52.838799,-42.443985
6101960784.3137,-51.891533,-84.162552
6105882352.9412,-53.252041,-138.40613
6109803921.5686,-55.514641,-179.17987
6113725490.1961,-55.217518,135.53575
6117647058.8235,-55.468742,82.974792
6121568627.451,-55.986996,32.454605
6125490196.0784,-54.631023,-14.430354
6129411764.7059,-55.08857,-63.439972
6133333333.3333,-55.415176,-107.70686
6137254901.9608,-55.608551,-135.38918
6141176470.5882,-56.341942,-175.69888
6145098039.2157,-56.345013,162.29491
6149019607.8431,-54.833473,128.24944
6152941176.4706,-54.384029,90.595055
6156862745.098,-54.496181,46.29097
6160784313.7255,-54.58342,2.0058699
6164705882.3529,-55.152443,-58.641129
6168627450.9804,-58.496361,-124.6075
6172549019.6078,-59.594334,175.70131
6176470588.2353,-59.930241,129.47937
6180392156.8627,-55.408089,80.157654
6184313725.4902,-53.679321,24.68631
6188235294.1176,-53.098751,-29.252857
6192156862.7451,-55.622803,-66.205864
6196078431.3725,-55.052547,-90.530792
6200000000,-55.496479,-121.69706
6203921568.6275,-55.710396,-145.52364
6207843137.2549,-55.629604,-168.27841
6211764705.8824,-54.401955,163.24751
6215686274.5098,-55.385349,140.19131
6219607843.1373,-53.339581,114.91866
6223529411.7647,-52.836948,76.802208
6227450980.3922,-55.113785,48.991127
6231372549.0196,-54.577728,30.040699
6235294117.6471,-53.615841,2.66868
6239215686.2745,-54.591446,-33.353161
6243137254.902,-57.139751,-58.275429
6247058823.5294,-57.544273,-59.186268
6250980392.1569,-56.422394,-81.034103
6254901960.7843,-54.635303,-91.424507
6258823529.4118,-52.444683,-127.47591
6262745098.0392,-52.660656,-157.39479
6266666666.6667,-51.281063,176.65349
6270588235.2941,-50.636719,147.8929
6274509803.9216,-49.402195,109.77438
6278431372.549,-49.795101,69.263908
6282352941.1765,-50.957699,36.196411
6286274509.8039,-51.161018,6.4533186
6290196078.4314,-51.394169,-38.287426
6294117647.0588,-53.216278,-78.65374
6298039215.6863,-55.122375,-134.11284
6301960784.3137,-61.772026,165.02982
6305882352.9412,-65.549591,76.971443
6309803921.5686,-69.229187,-8.6494179
6313725490.1961,-64.884659,-32.541229
6317647058.8235,-61.99884,-74.022316
6321568627.451,-63.567039,-84.658409
6325490196.0784,-56.076294,-93.423378
6329411764.7059,-52.118587,-145.84496
6333333333.3333,-52.173008,170.66933
6337254901.9608,-51.235886,143.25842
6341176470.5882,-50.281193,105.1315
6345098039.2157,-50.651379,70.37468
6349019607.8431,-51.344498,43.992062
6352941176.4706,-50.306427,16.739651
6356862745.098,-50.636112,-15.120315
6360784313.7255,-49.636845,-39.589699
6364705882.3529,-49.43996,-76.665436
6368627450.9804,-49.391411,-104.65707
6372549019.6078,-48.97839,-140.75694
6376470588.2353,-50.14489,178.22906
6380392156.8627,-52.093365,149.53432
6384313725.4902,-53.390324,116.58434
6388235294.1176,-55.36084,95.171951
6392156862.7451,-55.846413,61.985039
6396078431.3725,-59.478889,18.936398
6400000000,-69.086693,24.148767
6403921568.6275,-64.264481,56.882744
6407843137.2549,-61.788872,32.808823
6411764705.8824,-57.269779,5.5506039
6415686274.5098,-55.902935,-52.446575
6419607843.1373,-57.424255,-108.37178
6423529411.7647,-61.276913,177.61751
6427450980.3922,-63.649391,118.18423
6431372549.0196,-60.16798,48.415092
6435294117.6471,-58.440868,-12.409878
6439215686.2745,-58.475609,-35.578236
6443137254.902,-53.331459,-73.398888
6447058823.5294,-52.743683,-123.21796
6450980392.1569,-52.796925,-162.31386
6454901960.7843,-54.580433,158.61182
6458823529.4118,-57.445011,156.09169
6462745098.0392,-54.033386,135.31493
6466666666.6667,-53.862797,95.726135
6470588235.2941,-53.796574,81.808281
6474509803.9216,-51.730324,47.1064
6478431372.549,-52.955925,3.0546429
6482352941.1765,-55.778362,-20.601412
6486274509.8039,-56.155399,-28.459806
6490196078.4314,-55.155472,-53.736652
6494117647.0588,-54.593952,-81.171875
6498039215.6863,-54.873463,-104.56004
6501960784.3137,-54.186115,-139.06464
6505882352.9412,-55.405579,-163.94955
6509803921.5686,-56.083565,158.67186
6513725490.1961,-57.82225,137.39493
6517647058.8235,-58.773918,117.75741
6521568627.451,-60.232643,99.21347
6525490196.0784,-58.737953,98.76091
6529411764.7059,-55.767246,68.379234
6533333333.3333,-52.817951,28.516272
6537254901.9608,-53.193214,-21.862696
6541176470.5882,-53.882675,-54.967361
6545098039.2157,-53.463272,-100.02085
6549019607.8431,-54.873302,-147.51402
6552941176.4706,-57.199299,163.10455
6556862745.098,-64.087692,136.01021
6560784313.7255,-59.508614,124.12355
6564705882.3529,-60.559292,66.791534
6568627450.9804,-63.354702,31.524666
6572549019.6078,-62.227585,0.44476059
6576470588.2353,-63.486958,-29.050278
6580392156.8627,-60.8993,-49.411953
6584313725.4902,-56.986679,-82.997711
6588235294.1176,-54.134876,-125.29484
6592156862.7451,-52.148556,-164.73906
6596078431.3725,-50.476154,149.10081
6600000000,-49.942699,115.36669
6603921568.6275,-48.262909,76.609383
6607843137.2549,-47.039314,39.26664
6611764705.8824,-46.593025,-3.7190223
6615686274.5098,-46.920898,-41.464622
6619607843.1373,-47.132595,-77.372093
6623529411.7647,-47.740086,-115.18312
6627450980.3922,-49.101585,-148.74503
6631372549.0196,-50.560478,-178.77312
6635294117.6471,-50.844124,156.89001
6639215686.2745,-51.361042,119.08771
6643137254.902,-54.912739,85.68705
6647058823.5294,-56.091198,76.680557
6650980392.1569,-57.478279,40.369877
6654901960.7843,-59.71703,28.108934
6658823529.4118,-64.998505,13.833654
6662745098.0392,-61.438187,24.834
6666666666.6667,-62.107254,2.3966086
6670588235.2941,-60.090271,-5.0005965
6674509803.9216,-59.172047,-27.087715
6678431372.549,-55.74485,-41.812096
6682352941.1765,-53.190228,-85.337006
6686274509.8039,-53.350368,-128.64534
6690196078.4314,-54.246403,-163.80717
6694117647.0588,-54.140079,163.92993
6698039215.6863,-55.0383,122.62474
6701960784.3137,-55.306114,83.792564
6705882352.9412,-56.449406,37.73653
6709803921.5686,-58.790421,-17.759516
6713725490.1961,-62.456104,-61.576191
6717647058.8235,-68.212738,-96.093895
6721568627.451,-70.843575,-124.29449
6725490196.0784,-72.522514,-126.77493
6729411764.7059,-65.457512,-145.35483
6733333333.3333,-61.527187,161.93707
6737254901.9608,-60.860794,100.96178
6741176470.5882,-64.161926,69.802162
6745098039.2157,-59.650303,58.97863
6749019607.8431,-56.496426,1.6016928
6752941176.4706,-57.67168,-49.059055
6756862745.098,-57.509792,-85.071007
6760784313.7255,-57.452293,-128.34761
6764705882.3529,-57.502617,-171.63174
6768627450.9804,-60.009018,136.91064
6772549019.6078,-61.914082,112.73708
6776470588.2353,-63.339325,75.99147
6780392156.8627,-69.149681,53.0149
6784313725.4902,-68.444771,47.52562
6788235294.1176,-67.11496,58.900219
6792156862.7451,-63.129604,38.721405
6796078431.3725,-58.487255,2.8828778
6800000000,-57.150387,-50.718559
6803921568.6275,-59.235882,-82.681236
6807843137.2549,-60.339134,-101.77708
6811764705.8824,-58.778927,-115.30294
6815686274.5098,-55.782597,-136.59402
6819607843.1373,-54.011387,174.24342
6823529411.7647,-56.372829,146.87166
6827450980.3922,-54.354122,125.12428
6831372549.0196,-53.847782,88.398178
6835294117.6471,-53.465504,50.723389
6839215686.2745,-55.330997,7.8163877
6843137254.902,-60.010361,-13.130991
6847058823.5294,-59.319626,-9.8902225
6850980392.1569,-57.771935,-46.028702
6854901960.7843,-58.184532,-72.461678
6858823529.4118,-59.200962,-113.60022
6862745098.0392,-63.684444,-137.01582
6866666666.6667,-68.362335,-164.56691
6870588235.2941,-67.140945,-121.45582
6874509803.9216,-65.971054,-147.93425
6878431372.549,-65.309303,-163.28653
6882352941.1765,-65.401154,-172.33481
6886274509.8039,-63.058826,168.90797
6890196078.4314,-61.845177,145.10231
6894117647.0588,-60.125568,119.89717
6898039215.6863,-58.531612,78.682747
6901960784.3137,-61.956623,34.23917
6905882352.9412,-64.751457,18.503994
6909803921.5686,-68.139969,50.00362
6913725490.1961,-63.329876,13.838488
6917647058.8235,-62.483131,4.054328
6921568627.451,-58.869518,-18.886822
6925490196.0784,-57.195522,-60.723961
6929411764.7059,-56.99099,-103.54241
6933333333.3333,-57.467957,-140.77808
6937254901.9608,-60.233459,175.94759
6941176470.5882,-64.344719,146.90601
6945098039.2157,-70.003426,159.26378
6949019607.8431,-64.873993,166.16666
6952941176.4706,-61.231236,128.76694
6956862745.098,-59.891216,92.305038
6960784313.7255,-59.379059,40.68108
6964705882.3529,-63.680893,4.0775027
6968627450.9804,-62.037827,-12.56453
6972549019.6078,-62.44561,-71.386597
6976470588.2353,-65.076111,-116.46702
6980392156.8627,-68.24157,162.05037
6984313725.4902,-73.033806,0.41302535
6988235294.1176,-71.605408,-116.33997
6992156862.7451,-65.869095,-160.95596
6996078431.3725,-63.8465,118.61708
7000000000,-63.870907,58.660412
END,,