Freq(Hz),S21(DB),S21(DEG)
6000000000,-58.102909,-47.296261
6003921568.6275,-58.590206,-97.020866
6007843137.2549,-58.946262,-119.9284
6011764705.8824,-58.975979,-138.62306
6015686274.5098,-54.931175,-162.47366
6019607843.1373,-53.105194,147.28946
6023529411.7647,-54.95536,101.64496
6027450980.3922,-59.104557,71.409462
6031372549.0196,-59.941124,84.163689
6035294117.6471,-55.645569,66.229439
6039215686.2745,-54.631207,30.323025
6043137254.902,-54.031796,7.3040104
6047058823.5294,-52.018559,-19.98617
6050980392.1569,-51.681416,-56.098385
6054901960.7843,-51.448391,-84.2118
6058823529.4118,-51.12455,-117.36022
6062745098.0392,-52.400993,-147.03226
6066666666.6667,-52.420048,-166.99506
6070588235.2941,-51.527702,171.08591
6074509803.9216,-50.410431,133.30229
6078431372.549,-52.559387,101.29135
6082352941.1765,-52.454842,85.248932
6086274509.8039,-51.497818,56.993763
6090196078.4314,-51.477669,24.034845
6094117647.0588,-51.855824,-10.518126
6098039215.6863,-51.940948,-39.546371
6101960784.3137,-51.569489,-78.925789
6105882352.9412,-53.181454,-126.28726
6109803921.5686,-56.18425,-162.70346
6113725490.1961,-55.904842,161.59444
6117647058.8235,-56.564575,104.76258
6121568627.451,-57.479588,56.015087
6125490196.0784,-55.352966,-2.190547
6129411764.7059,-55.28088,-65.665527
6133333333.3333,-57.358524,-119.39646
6137254901.9608,-58.671116,-139.89594
6141176470.5882,-58.287807,-176.25737
6145098039.2157,-58.826988,160.48183
6149019607.8431,-56.232304,132.46609
6152941176.4706,-55.500301,90.513145
6156862745.098,-55.113842,43.846912
6160784313.7255,-55.012352,-6.3738985
6164705882.3529,-55.761993,-68.653862
6168627450.9804,-57.382385,-135.93935
6172549019.6078,-58.395611,161.35922
6176470588.2353,-59.107918,122.44964
6180392156.8627,-55.212048,80.413704
6184313725.4902,-53.409325,30.771225
6188235294.1176,-52.582951,-24.362494
6192156862.7451,-55.618671,-61.328892
6196078431.3725,-55.289837,-90.019234
6200000000,-57.384193,-116.74263
6203921568.6275,-57.695328,-133.90898
6207843137.2549,-57.115288,-148.86748
6211764705.8824,-55.260414,-178.35593
6215686274.5098,-55.917427,158.97145
6219607843.1373,-53.563236,131.14381
6223529411.7647,-53.585426,94.425766
6227450980.3922,-55.335594,68.292862
6231372549.0196,-53.779263,50.012287
6235294117.6471,-52.873283,13.531044
6239215686.2745,-54.915726,-25.096783
6243137254.902,-57.550144,-45.653469
6247058823.5294,-58.449505,-48.751369
6250980392.1569,-57.257645,-58.195644
6254901960.7843,-53.205849,-74.528786
6258823529.4118,-51.63401,-117.63776
6262745098.0392,-51.873001,-145.63306
6266666666.6667,-50.095921,-176.14229
6270588235.2941,-49.669632,150.19655
6274509803.9216,-49.286118,110.04782
6278431372.549,-50.532616,69.740456
6282352941.1765,-52.146442,42.883259
6286274509.8039,-52.579559,17.163883
6290196078.4314,-52.432755,-23.58663
6294117647.0588,-54.555695,-67.932686
6298039215.6863,-59.062016,-129.45865
6301960784.3137,-74.494057,68.358421
6305882352.9412,-63.449551,-15.331033
6309803921.5686,-61.068523,-63.826157
6313725490.1961,-60.985966,-82.65683
6317647058.8235,-59.023891,-105.42251
6321568627.451,-61.396141,-130.48006
6325490196.0784,-56.711914,-111.61964
6329411764.7059,-52.04678,-158.86371
6333333333.3333,-52.475174,160.50014
6337254901.9608,-51.231503,142.34491
6341176470.5882,-49.673454,104.93069
6345098039.2157,-49.568607,70.678581
6349019607.8431,-50.09761,42.402466
6352941176.4706,-49.247414,14.594124
6356862745.098,-49.830372,-14.908307
6360784313.7255,-48.58736,-39.98518
6364705882.3529,-48.481083,-75.614586
6368627450.9804,-47.988472,-107.54035
6372549019.6078,-48.370632,-144.85698
6376470588.2353,-49.448364,174.59454
6380392156.8627,-51.816933,146.1749
6384313725.4902,-53.77858,112.11237
6388235294.1176,-56.633312,97.510498
6392156862.7451,-55.601192,72.634071
6396078431.3725,-58.246517,22.298508
6400000000,-68.056725,9.4180918
6403921568.6275,-63.868675,49.349327
6407843137.2549,-62.794991,20.719978
6411764705.8824,-58.20195,0.56304574
6415686274.5098,-56.337563,-61.342449
6419607843.1373,-57.45821,-118.04407
6423529411.7647,-58.312244,171.08086
6427450980.3922,-58.151623,109.33855
6431372549.0196,-55.203629,44.680691
6435294117.6471,-55.205219,-17.501917
6439215686.2745,-57.292767,-44.316776
6443137254.902,-53.700321,-75.819229
6447058823.5294,-53.72345,-116.46741
6450980392.1569,-53.514561,-152.77
6454901960.7843,-54.782734,175.33424
6458823529.4118,-55.701962,168.00514
6462745098.0392,-52.442699,137.11116
6466666666.6667,-53.10297,95.688766
6470588235.2941,-53.30439,76.903885
6474509803.9216,-51.961586,43.636246
6478431372.549,-53.161491,-0.82966703
6482352941.1765,-56.163994,-24.312346
6486274509.8039,-57.71722,-33.65184
6490196078.4314,-56.563519,-52.535789
6494117647.0588,-55.878296,-82.404335
6498039215.6863,-57.74493,-100.61891
6501960784.3137,-55.491074,-124.30619
6505882352.9412,-55.634594,-153.19472
6509803921.5686,-57.147396,164.63799
6513725490.1961,-59.394924,158.08698
6517647058.8235,-58.724129,141.79956
6521568627.451,-58.822235,129.73485
6525490196.0784,-55.627186,114.40555
6529411764.7059,-53.068821,79.380096
6533333333.3333,-51.008743,36.470222
6537254901.9608,-51.850742,-12.410001
6541176470.5882,-53.603474,-47.031521
6545098039.2157,-54.217503,-82.108772
6549019607.8431,-56.220478,-117.02838
6552941176.4706,-56.97776,-160.23947
6556862745.098,-62.389053,170.077
6560784313.7255,-59.953484,135.87572
6564705882.3529,-63.402222,71.780472
6568627450.9804,-67.513092,2.575129
6572549019.6078,-69.97718,-41.901306
6576470588.2353,-75.059647,-61.563213
6580392156.8627,-65.866547,-64.302666
6584313725.4902,-60.474197,-93.121452
6588235294.1176,-55.487724,-137.54807
6592156862.7451,-52.783852,-177.94778
6596078431.3725,-51.054428,136.20531
6600000000,-50.457672,104.25264
6603921568.6275,-48.954853,68.933647
6607843137.2549,-47.155422,35.70261
6611764705.8824,-46.491005,-6.7972403
6615686274.5098,-46.718018,-44.37009
6619607843.1373,-46.696499,-80.185326
6623529411.7647,-47.691917,-117.31123
6627450980.3922,-48.918995,-145.28154
6631372549.0196,-49.937664,-176.89534
6635294117.6471,-50.41674,157.4064
6639215686.2745,-50.60416,120.38354
6643137254.902,-53.877926,85.377686
6647058823.5294,-55.429417,76.406311
6650980392.1569,-56.157166,40.478451
6654901960.7843,-58.801041,29.066891
6658823529.4118,-61.2202,15.25295
6662745098.0392,-58.406303,2.7206197
6666666666.6667,-60.934959,-34.546955
6670588235.2941,-62.92807,-22.133581
6674509803.9216,-60.129757,-35.385063
6678431372.549,-56.112301,-50.884686
6682352941.1765,-53.581692,-91.437836
6686274509.8039,-52.572422,-134.9357
6690196078.4314,-53.03875,-174.20976
6694117647.0588,-53.326782,152.26384
6698039215.6863,-53.321182,113.64396
6701960784.3137,-53.351639,76.018623
6705882352.9412,-53.868996,34.061886
6709803921.5686,-54.555096,-12.116058
6713725490.1961,-56.530533,-58.278828
6717647058.8235,-60.331062,-100.87997
6721568627.451,-63.018917,-140.28188
6725490196.0784,-73.205688,-147.06152
6729411764.7059,-63.952518,-130.7327
6733333333.3333,-60.232571,170.77328
6737254901.9608,-62.115868,110.21322
6741176470.5882,-64.97876,96.860672
6745098039.2157,-60.041779,64.691444
6749019607.8431,-58.68148,4.2534056
6752941176.4706,-60.602146,-42.266476
6756862745.098,-60.317204,-76.595398
6760784313.7255,-59.061226,-116.00176
6764705882.3529,-58.721687,-163.66266
6768627450.9804,-60.048512,147.02682
6772549019.6078,-61.844273,116.9762
6776470588.2353,-63.113228,81.063492
6780392156.8627,-68.808411,62.086018
6784313725.4902,-68.499908,62.038433
6788235294.1176,-63.348316,71.790741
6792156862.7451,-60.013863,37.773067
6796078431.3725,-56.146122,1.8548694
6800000000,-55.081394,-51.242161
6803921568.6275,-56.648746,-88.066582
6807843137.2549,-59.106716,-116.94843
6811764705.8824,-58.560852,-122.5472
6815686274.5098,-56.120174,-143.18437
6819607843.1373,-54.853409,167.4682
6823529411.7647,-57.854717,146.72223
6827450980.3922,-55.050045,128.28983
6831372549.0196,-54.336765,87.224541
6835294117.6471,-54.320652,50.38472
6839215686.2745,-55.572475,6.6096635
6843137254.902,-60.746674,-28.819838
6847058823.5294,-63.233784,-12.812337
6850980392.1569,-60.705017,-42.407921
6854901960.7843,-60.073784,-63.65834
6858823529.4118,-60.258907,-107.19607
6862745098.0392,-65.141029,-131.72432
6866666666.6667,-66.541664,-151.82321
6870588235.2941,-66.161812,-142.85211
6874509803.9216,-66.20208,176.62642
6878431372.549,-69.898766,151.99362
6882352941.1765,-78.202393,-160.06123
6886274509.8039,-67.488724,-164.28072
6890196078.4314,-63.76228,152.03346
6894117647.0588,-62.364601,123.11495
6898039215.6863,-61.042152,79.136772
6901960784.3137,-63.725159,37.737637
6905882352.9412,-66.36721,8.8543758
6909803921.5686,-73.585129,64.346313
6913725490.1961,-66.827408,24.913282
6917647058.8235,-63.660767,21.64212
6921568627.451,-58.762955,-10.045831
6925490196.0784,-56.455875,-58.773972
6929411764.7059,-56.623528,-109.88535
6933333333.3333,-57.881325,-146.56136
6937254901.9608,-60.744797,169.53812
6941176470.5882,-64.430855,141.12036
6945098039.2157,-71.441032,149.35971
6949019607.8431,-65.09008,161.72687
6952941176.4706,-61.555161,119.39664
6956862745.098,-60.804379,83.734039
6960784313.7255,-60.05518,27.017166
6964705882.3529,-66.159439,-28.643461
6968627450.9804,-69.411163,-11.931419
6972549019.6078,-67.553444,-69.872284
6976470588.2353,-71.07309,-124.44333
6980392156.8627,-71.483902,119.09481
6984313725.4902,-69.084641,10.721619
6988235294.1176,-70.045837,-65.25679
6992156862.7451,-66.906868,-130.32156
6996078431.3725,-65.684509,135.49471
7000000000,-64.792679,48.630524
END,,