Freq(Hz),S21(DB),S21(DEG)
6000000000,-42.500835,44.33865
6002500000,-42.347313,29.519657
6005000000,-41.99612,14.86619
6007500000,-42.227245,1.664642
6010000000,-41.426163,-9.8109455
6012500000,-41.071968,-26.790823
6015000000,-41.138851,-42.147682
6017500000,-41.247982,-57.694576
6020000000,-41.441418,-71.01902
6022500000,-41.458897,-85.83535
6025000000,-41.890072,-100.36158
6027500000,-42.16254,-112.70091
6030000000,-42.205887,-126.13051
6032500000,-42.265667,-141.74855
6035000000,-42.494183,-159.21651
6037500000,-43.175968,-176.76831
6040000000,-44.185459,164.48917
6042500000,-45.956554,148.46907
6045000000,-47.530659,134.56224
6047500000,-49.599197,123.65185
6050000000,-51.427139,111.96256
6052500000,-54.169285,107.01611
6055000000,-56.166187,109.73766
6057500000,-56.404858,116.2744
6060000000,-55.391388,108.66652
6062500000,-54.691685,90.063324
6065000000,-56.745842,55.37635
6067500000,-61.894974,33.126328
6070000000,-62.580723,-7.8761115
6072500000,-58.746433,-80.614159
6075000000,-53.84972,-128.82422
6077500000,-51.122562,-164.78532
6080000000,-49.548298,169.78889
6082500000,-48.713211,149.4435
6085000000,-47.752026,132.37589
6087500000,-47.528084,119.60227
6090000000,-46.044201,108.59395
6092500000,-44.980755,90.438698
6095000000,-44.401722,71.808693
6097500000,-44.879875,56.972126
6100000000,-44.502186,46.801453
6102500000,-43.742878,32.614132
6105000000,-43.844738,16.296061
6107500000,-43.622437,4.6479502
6110000000,-43.264824,-11.312407
6112500000,-43.8055,-30.411633
6115000000,-44.855339,-43.365791
6117500000,-46.085304,-53.289711
6120000000,-46.693771,-54.951202
6122500000,-46.098911,-61.365971
6125000000,-45.980587,-69.628242
6127500000,-45.184574,-78.114807
6130000000,-44.274227,-90.245491
6132500000,-44.132668,-111.78023
6135000000,-45.631031,-123.10825
6137500000,-45.410061,-128.55498
6140000000,-45.094849,-142.95935
6142500000,-45.482452,-156.91978
6145000000,-46.481846,-168.75475
6147500000,-47.105118,-172.36421
6150000000,-45.98093,178.59741
6152500000,-45.573009,162.41568
6155000000,-45.706627,142.46146
6157500000,-47.623837,123.81351
6160000000,-48.800961,119.8332
6162500000,-49.134659,99.316376
6165000000,-52.499752,87.209923
6167500000,-55.553047,88.398781
6170000000,-56.561932,103.92249
6172500000,-54.088715,110.04367
6175000000,-52.889324,85.80011
6177500000,-55.914173,78.290932
6180000000,-56.121792,76.091942
6182500000,-58.343853,72.51033
6185000000,-59.576534,86.832298
6187500000,-58.230675,93.377235
6190000000,-56.394203,94.174248
6192500000,-55.893509,99.016685
6195000000,-53.096745,95.540298
6197500000,-51.384529,83.456505
6200000000,-51.147446,76.888062
6202500000,-49.459324,74.04142
6205000000,-47.49229,64.358971
6207500000,-45.29921,51.684933
6210000000,-43.843864,30.314592
6212500000,-43.844822,11.454238
6215000000,-43.73098,-1.7429478
6217500000,-43.572521,-16.269958
6220000000,-43.640724,-29.379465
6222500000,-43.761688,-40.191586
6225000000,-43.134602,-49.742252
6227500000,-42.360649,-66.757492
6230000000,-42.790386,-87.572006
6232500000,-44.4478,-99.300949
6235000000,-44.985172,-105.59802
6237500000,-44.944328,-110.25509
6240000000,-43.99625,-125.42681
6242500000,-45.469601,-142.59798
6245000000,-47.011608,-148.48
6247500000,-48.384838,-144.05853
6250000000,-46.382473,-138.97453
6252500000,-44.487907,-152.29874
6255000000,-43.509762,-168.26079
6257500000,-43.630035,174.64522
6260000000,-43.918159,163.38873
6262500000,-43.820454,150.23984
6265000000,-44.234299,136.24254
6267500000,-44.754002,122.44592
6270000000,-46.295597,110.6237
6272500000,-47.259441,111.24312
6275000000,-46.56144,105.95467
6277500000,-46.949856,93.093597
6280000000,-47.827602,88.528419
6282500000,-47.927132,87.295418
6285000000,-47.067638,81.773483
6287500000,-46.412811,77.520859
6290000000,-45.659252,65.576401
6292500000,-45.411934,57.364403
6295000000,-44.275181,45.427563
6297500000,-44.370472,29.007124
6300000000,-45.080982,16.318567
6302500000,-45.666389,11.673544
6305000000,-45.042442,2.1999879
6307500000,-44.943836,-6.6536713
6310000000,-44.703243,-21.568562
6312500000,-45.323719,-33.484196
6315000000,-46.573952,-42.645016
6317500000,-46.638943,-43.489712
6320000000,-46.409508,-52.869072
6322500000,-46.250298,-57.682545
6325000000,-46.050251,-70.818901
6327500000,-46.590347,-79.777603
6330000000,-47.758728,-85.290482
6332500000,-47.119205,-81.242004
6335000000,-45.656754,-87.613777
6337500000,-44.936466,-103.43343
6340000000,-45.765514,-113.06932
6342500000,-45.10017,-116.69321
6345000000,-44.789154,-126.04735
6347500000,-44.626415,-135.13107
6350000000,-44.318565,-141.05896
6352500000,-43.67635,-149.15376
6355000000,-43.040928,-156.37152
6357500000,-42.125259,-167.25343
6360000000,-41.728222,179.14178
6362500000,-41.766575,170.24773
6365000000,-41.073799,164.14215
6367500000,-39.829048,151.11803
6370000000,-39.261349,136.71198
6372500000,-38.697117,121.26324
6375000000,-38.581364,104.75456
6377500000,-38.843933,87.434792
6380000000,-39.840733,74.409363
6382500000,-40.409142,67.19471
6385000000,-40.099316,58.314018
6387500000,-39.735191,44.353764
6390000000,-40.29707,26.687601
6392500000,-41.801964,16.513868
6395000000,-42.547329,12.37507
6397500000,-42.689716,7.2496295
6400000000,-42.327343,4.4906735
6402500000,-41.240589,-6.0530224
6405000000,-40.684681,-19.773005
6407500000,-40.609764,-35.485962
6410000000,-40.729797,-52.007683
6412500000,-42.03611,-68.46373
6415000000,-43.682919,-78.853851
6417500000,-45.64743,-83.663452
6420000000,-45.811226,-76.401001
6422500000,-44.766857,-82.125786
6425000000,-44.455563,-89.84536
6427500000,-43.892593,-98.505074
6430000000,-43.446777,-112.53265
6432500000,-44.3395,-126.4722
6435000000,-45.53326,-134.55019
6437500000,-46.871643,-135.38773
6440000000,-46.697517,-128.70398
6442500000,-44.798595,-129.03745
6445000000,-43.175011,-139.60527
6447500000,-42.386269,-152.571
6450000000,-41.822285,-163.69766
6452500000,-41.460075,-176.46065
6455000000,-41.184277,174.6577
6457500000,-40.560394,162.71489
6460000000,-40.052341,151.05038
6462500000,-39.496586,136.08224
6465000000,-39.699604,119.45285
6467500000,-40.424469,105.85241
6470000000,-41.000767,97.416718
6472500000,-41.202923,88.314758
6475000000,-41.109161,80.443329
6477500000,-40.904793,67.748055
6480000000,-41.270782,56.943546
6482500000,-41.498466,47.057674
6485000000,-41.524681,37.453949
6487500000,-41.943581,27.665201
6490000000,-41.538937,21.679905
6492500000,-40.919323,6.8827639
6495000000,-41.219933,-10.478203
6497500000,-42.370754,-23.452883
6500000000,-43.086765,-32.533329
END,,