Freq(Hz),S11(DB),S11(DEG),S12(DB),S12(DEG),S21(DB),S21(DEG),S22(DB),S22(DEG)
6000000000,-8.0335407,-5.8402858,-36.336411,-172.7187,-36.194492,-172.15906,-8.0777473,-16.384657
6002500000,-8.0582628,-6.5019946,-35.57169,-176.63367,-35.603306,-176.56587,-8.1430254,-16.804804
6005000000,-8.1461315,-7.2481446,-35.240028,-178.82153,-35.292809,-178.37448,-8.1333237,-17.782875
6007500000,-8.2211103,-7.9789453,-34.671528,179.13939,-34.704128,178.93774,-8.2313175,-17.929459
6010000000,-8.3163548,-8.8278532,-34.044548,175.72569,-34.012817,175.73885,-8.2343922,-18.686598
6012500000,-8.3272696,-9.1683559,-33.514736,171.81387,-33.640633,171.49654,-8.3106518,-19.874996
6015000000,-8.3901815,-10.360587,-33.469677,168.09657,-33.300293,166.91747,-8.2145691,-20.378271
6017500000,-8.4335489,-10.774151,-33.291264,164.67159,-33.135265,165.1667,-8.2981701,-20.888218
6020000000,-8.5023756,-11.380149,-32.939415,161.81128,-32.807514,162.27325,-8.3006535,-21.913244
6022500000,-8.5679502,-11.856635,-32.152718,159.39517,-32.156883,159.60869,-8.3638048,-22.271318
6025000000,-8.7062969,-12.673917,-31.682373,153.65652,-31.685961,152.62314,-8.3419838,-23.029467
6027500000,-8.7224255,-13.24158,-31.559971,146.61807,-31.433649,145.80368,-8.3511181,-23.108948
6030000000,-8.7703581,-14.480946,-31.639122,138.20648,-31.629007,138.36627,-8.4055214,-24.262608
6032500000,-8.8640032,-14.610427,-31.884539,132.86195,-31.998362,131.69701,-8.3662443,-26.195032
6035000000,-8.8682861,-14.967463,-32.499043,128.66582,-32.358387,128.01151,-8.352252,-27.053173
6037500000,-8.9779339,-15.424905,-32.781475,121.27261,-32.784218,121.19928,-8.4833527,-27.813002
6040000000,-9.0239277,-16.141315,-33.335033,116.91117,-33.499043,117.22777,-8.5573759,-29.181744
6042500000,-8.9661226,-16.489079,-34.180664,112.62082,-34.079967,112.32977,-8.5921545,-29.791903
6045000000,-9.0029116,-17.112236,-35.073303,109.35556,-35.068661,108.62982,-8.611928,-30.393581
6047500000,-9.1377573,-18.289793,-35.980286,107.80795,-36.052887,106.85107,-8.6457872,-31.117632
6050000000,-9.0943642,-19.310064,-36.708351,105.77415,-36.850586,106.68735,-8.7429094,-32.688759
6052500000,-9.1154718,-19.644522,-38.331894,102.53194,-38.258011,101.50141,-8.7755032,-32.943401
6055000000,-9.2228804,-21.136066,-40.552502,104.2377,-40.673069,104.70194,-8.8826122,-33.569977
6057500000,-9.2181339,-21.241341,-42.126541,117.57024,-42.172787,119.10879,-8.9897165,-34.999496
6060000000,-9.2942772,-21.73749,-42.517658,133.83195,-42.433361,133.92427,-9.0249262,-35.382343
6062500000,-9.2969275,-22.403467,-41.789658,146.18112,-41.89994,145.90495,-9.1893826,-36.400597
6065000000,-9.4169044,-22.95557,-39.991013,156.61487,-39.870659,156.51299,-9.18328,-37.35667
6067500000,-9.5106745,-24.000467,-38.571373,156.63898,-38.628418,157.09499,-9.3506813,-38.353058
6070000000,-9.5949364,-25.892635,-37.462814,157.06863,-37.432098,156.99474,-9.3457508,-38.159271
6072500000,-9.7385664,-25.51182,-36.6478,155.84438,-36.690334,154.52591,-9.3467264,-39.819336
6075000000,-9.7959318,-26.164101,-36.21032,154.04921,-36.353134,155.34367,-9.5038033,-39.698681
6077500000,-9.9142847,-26.728056,-35.503662,156.5316,-35.39539,157.08881,-9.434864,-40.547192
6080000000,-9.9282436,-27.577251,-34.136581,156.33266,-34.140491,155.71309,-9.54389,-40.478802
6082500000,-10.129998,-27.898575,-33.31065,150.8732,-33.24791,150.17616,-9.598382,-41.884014
6085000000,-10.289605,-28.124035,-32.805153,148.64877,-32.626011,148.91664,-9.6629009,-42.728283
6087500000,-10.25138,-29.39119,-31.940243,145.31808,-31.901484,145.31474,-9.7759304,-43.021534
6090000000,-10.347454,-30.096111,-31.237272,139.5154,-31.188429,140.09935,-9.7180548,-44.074516
6092500000,-10.539507,-30.507895,-30.809019,134.53091,-30.844013,134.25545,-9.6618738,-44.266499
6095000000,-10.683162,-30.897516,-30.246664,128.13136,-30.223736,128.23204,-9.835371,-45.713173
6097500000,-10.730716,-30.559179,-30.014507,121.54182,-30.027094,121.80598,-9.9259968,-46.35714
6100000000,-10.813633,-31.040279,-30.12903,114.93658,-30.275362,114.85492,-9.869771,-47.669273
6102500000,-10.818458,-31.294825,-30.108303,111.18799,-30.099274,110.46648,-9.9376907,-48.211655
6105000000,-10.904201,-31.820185,-30.217661,105.11554,-30.13118,105.15062,-10.034759,-49.008469
6107500000,-10.934703,-32.415298,-30.440535,100.71845,-30.358061,100.73272,-9.9667559,-50.159683
6110000000,-11.052129,-33.231136,-30.464054,95.825195,-30.535381,94.794395,-9.966258,-50.218037
6112500000,-11.158922,-34.020912,-30.825912,90.445091,-30.925671,89.037384,-10.042974,-51.105347
6115000000,-11.218972,-35.332817,-31.116009,88.003441,-31.300915,88.359573,-10.100034,-52.309822
6117500000,-11.330075,-35.459045,-31.594345,83.816628,-31.366621,83.168747,-10.16826,-53.969395
6120000000,-11.351768,-36.588554,-31.809601,78.187775,-31.759949,79.545624,-10.201784,-55.127197
6122500000,-11.429935,-36.29771,-32.363503,73.93354,-32.456547,74.891846,-10.305984,-56.060669
6125000000,-11.593064,-37.844322,-33.199947,71.93248,-33.247101,72.296745,-10.393998,-56.696342
6127500000,-11.590893,-38.434563,-34.19101,73.573265,-34.162827,73.839302,-10.535597,-57.816242
6130000000,-11.737189,-39.925785,-34.473946,73.307556,-34.380257,73.960892,-10.689829,-58.250866
6132500000,-11.837846,-40.065022,-34.719807,73.053802,-34.741398,73.345764,-10.771428,-59.537327
6135000000,-11.892993,-41.128635,-35.121998,75.685814,-35.179714,74.982834,-10.624918,-60.325611
6137500000,-12.006675,-42.559151,-34.762165,77.514175,-34.845547,75.616524,-10.714404,-61.7757
6140000000,-12.245672,-42.76281,-35.056931,71.668793,-35.071648,71.673271,-11.020397,-63.107254
6142500000,-12.396442,-42.754978,-35.76926,69.848618,-35.952724,71.105217,-11.170419,-62.832222
6145000000,-12.540073,-44.085583,-36.707623,71.70916,-36.69965,71.462158,-11.246173,-63.495064
6147500000,-12.624058,-44.171791,-37.425896,75.892746,-37.616795,76.475403,-11.122053,-63.208202
6150000000,-12.697087,-45.036488,-37.533588,83.787498,-37.491291,83.252663,-11.226552,-64.612587
6152500000,-12.979489,-45.769989,-37.419224,87.872253,-37.536243,88.300941,-11.231673,-64.968536
6155000000,-13.160894,-45.663078,-36.896591,96.333046,-37.005726,95.489136,-11.243396,-66.588486
6157500000,-13.418671,-45.984222,-35.861404,99.551422,-35.829548,99.393486,-11.421617,-67.333023
6160000000,-13.499959,-45.66925,-34.726154,100.14819,-34.889889,100.89287,-11.585697,-68.599586
6162500000,-13.63523,-45.753174,-33.859844,100.25362,-33.881756,100.28661,-11.620082,-68.897293
6165000000,-13.717505,-45.487453,-32.864296,100.06358,-32.68874,99.791153,-11.70034,-69.254379
6167500000,-13.991679,-43.456295,-31.758854,96.29097,-31.747486,96.414764,-11.612898,-71.004204
6170000000,-13.916535,-44.036129,-31.011274,90.526123,-30.864452,90.580948,-11.787045,-70.882896
6172500000,-13.885652,-43.113762,-30.55785,83.956886,-30.614786,84.732597,-11.76503,-72.119934
6175000000,-13.816403,-43.079735,-30.164806,78.913452,-30.184559,78.99823,-11.770649,-73.854065
6177500000,-13.778633,-42.522224,-30.126476,75.81945,-30.089376,74.79821,-11.877971,-74.743332
6180000000,-13.88481,-43.272282,-29.95595,71.177017,-29.900314,70.927391,-11.887378,-75.427727
6182500000,-13.815367,-44.45454,-29.838825,64.813972,-29.806738,64.538841,-11.79243,-77.109428
6185000000,-13.754031,-45.242336,-29.751156,59.382381,-29.733158,59.105419,-11.912965,-77.839508
6187500000,-13.583451,-46.281277,-30.118937,55.840576,-30.14901,56.559727,-12.113343,-79.237457
6190000000,-13.788761,-47.173561,-30.130701,53.659943,-30.116016,53.028564,-12.092459,-80.849403
6192500000,-13.706464,-47.579544,-30.031218,50.373268,-30.124441,50.141842,-12.038508,-82.171913
6195000000,-13.885276,-48.32246,-30.050499,47.025101,-30.02309,46.224609,-12.360728,-83.635895
6197500000,-13.879702,-50.302242,-30.228914,42.740238,-30.19504,42.168072,-12.409757,-85.209007
6200000000,-14.179291,-52.34317,-30.750172,39.718399,-30.663973,39.751987,-12.590942,-86.774124
6202500000,-14.202647,-52.621979,-30.789366,38.492687,-30.845863,38.66367,-12.868668,-87.599945
6205000000,-14.443551,-52.437244,-30.711105,36.684311,-30.652561,35.866222,-13.031539,-87.140541
6207500000,-14.483549,-53.261086,-30.81835,32.561966,-30.826899,32.876602,-13.307003,-88.021049
6210000000,-14.468158,-54.067146,-30.850346,29.749319,-30.882122,29.252884,-13.209698,-89.086327
6212500000,-14.458277,-55.716606,-31.325804,26.865793,-31.441544,26.22752,-13.381484,-89.430214
6215000000,-14.78685,-57.000652,-31.774149,25.665461,-31.8148,25.034861,-13.368752,-90.78421
6217500000,-14.909981,-57.592209,-32.005955,24.350962,-31.975105,23.655403,-13.400695,-92.153343
6220000000,-15.142231,-58.436333,-32.256351,23.751684,-32.246914,22.944653,-13.566283,-93.09523
6222500000,-15.182444,-60.081493,-32.574825,22.754072,-32.495621,23.517834,-13.633942,-94.052948
6225000000,-15.334403,-60.598362,-32.415825,22.844906,-32.480026,22.193258,-14.022693,-94.849861
6227500000,-15.621448,-62.386265,-32.362434,20.036968,-32.423695,19.586868,-14.057598,-94.937431
6230000000,-16.042971,-64.079109,-32.710255,16.248896,-32.825497,15.966337,-14.172689,-95.201088
6232500000,-16.182199,-64.758141,-33.164364,18.325901,-33.09919,18.323328,-14.251594,-95.120583
6235000000,-16.399183,-64.660179,-33.151787,19.044437,-33.203434,17.802773,-14.122146,-95.646652
6237500000,-16.635521,-65.54882,-33.30344,18.385992,-33.306686,19.026802,-14.100599,-96.422348
6240000000,-16.875954,-65.043839,-33.242226,19.714193,-33.062435,19.565382,-14.166804,-96.770134
6242500000,-17.148935,-67.350304,-32.724995,19.643641,-32.662815,18.285868,-14.197507,-98.949333
6245000000,-17.473679,-67.165825,-32.144753,16.256516,-32.281948,17.095028,-14.1142,-101.02349
6247500000,-17.74732,-68.654434,-32.584625,10.277362,-32.542164,11.120308,-14.419684,-101.92814
6250000000,-18.079697,-66.623573,-33.06395,8.5104933,-33.22142,8.4457417,-14.364285,-102.77076
6252500000,-18.333597,-68.034142,-33.703583,10.563034,-33.62508,11.31095,-14.468411,-103.88862
6255000000,-18.431421,-66.361679,-33.314682,14.552177,-33.438438,14.757169,-14.274278,-104.6684
6257500000,-18.823614,-67.446411,-33.149601,11.318283,-32.959671,11.069275,-14.396949,-107.7565
6260000000,-18.855635,-64.665794,-33.017128,11.630058,-33.135433,12.072864,-14.430011,-109.562
6262500000,-19.080948,-64.144783,-32.967201,13.623113,-32.980888,14.478412,-14.548338,-109.54955
6265000000,-18.990095,-63.627926,-32.535236,13.078612,-32.384014,11.527755,-14.830596,-110.8637
6267500000,-18.982891,-63.267284,-31.867594,10.571563,-31.997326,10.766035,-14.949245,-111.68014
6270000000,-19.043535,-63.503925,-31.657913,6.7612271,-31.692707,6.2765479,-15.06461,-115.51559
6272500000,-18.91049,-64.089714,-31.910248,4.3084345,-31.869194,3.7094595,-15.140455,-116.76117
6275000000,-18.83761,-66.152893,-31.514881,2.7437873,-31.631874,2.9214249,-15.203598,-117.63831
6277500000,-19.371687,-66.043823,-31.598232,-1.6807526,-31.679102,-1.4689512,-15.233185,-119.12296
6280000000,-19.407206,-64.722786,-31.723875,-2.3535557,-31.512728,-2.4928803,-15.660539,-119.97182
6282500000,-19.621058,-65.677597,-31.497458,-3.8360524,-31.513493,-3.866375,-15.700594,-122.7803
6285000000,-19.231064,-67.962585,-31.733271,-7.7560778,-31.746702,-8.761838,-16.237633,-123.13557
6287500000,-19.43708,-69.525848,-31.990067,-9.3769264,-32.079346,-8.4788036,-16.372583,-124.74477
6290000000,-19.338678,-69.182236,-31.931681,-9.1783609,-31.948332,-10.09829,-16.307383,-124.01288
6292500000,-19.48313,-70.731216,-32.420807,-9.1231871,-32.370621,-8.4306736,-16.619484,-125.69249
6295000000,-19.774231,-71.775963,-31.912182,-6.9062309,-31.887993,-6.578392,-16.551081,-124.56757
6297500000,-20.00215,-75.115211,-31.173241,-7.6069064,-31.233543,-8.3639164,-16.593903,-125.74765
6300000000,-20.206724,-76.950935,-30.861147,-12.246987,-30.822821,-12.989928,-16.547619,-126.72617
6302500000,-20.538378,-76.997894,-30.873779,-16.473337,-30.893421,-16.483635,-16.495831,-128.11073
6305000000,-20.728378,-79.505127,-30.859354,-18.929701,-30.979013,-19.754187,-16.656466,-127.88154
6307500000,-21.260218,-81.18206,-31.04207,-22.019911,-31.036894,-21.823307,-16.580061,-131.00142
6310000000,-21.924936,-80.509949,-30.942667,-24.023897,-30.987825,-23.782179,-16.724794,-131.61258
6312500000,-22.373312,-82.665543,-30.917582,-25.921747,-30.981331,-25.339975,-16.621576,-132.24992
6315000000,-22.558758,-83.197571,-30.879564,-29.129511,-30.8615,-29.246511,-16.720474,-135.66568
6317500000,-22.937508,-82.591751,-31.271782,-31.7822,-31.314978,-30.855118,-16.940331,-136.1376
6320000000,-23.486004,-85.910469,-31.303602,-30.677635,-31.31472,-30.035269,-16.861761,-136.81154
6322500000,-24.577923,-85.371391,-31.256212,-31.170549,-31.165607,-31.266178,-16.778088,-138.10773
6325000000,-25.025496,-82.724274,-30.894268,-32.651546,-30.926735,-31.959354,-16.638596,-139.11981
6327500000,-24.976669,-80.389618,-30.742775,-35.36982,-30.77037,-35.090965,-16.691395,-142.50671
6330000000,-25.498472,-80.156982,-30.632244,-38.862129,-30.683084,-38.699429,-16.913258,-144.3833
6332500000,-25.7085,-79.819084,-30.800089,-41.033199,-30.729757,-40.852413,-16.7386,-146.31136
6335000000,-26.515259,-77.58342,-30.860689,-43.714264,-30.779245,-43.540936,-17.015581,-147.52315
6337500000,-26.627785,-82.183311,-30.771902,-46.037903,-30.863085,-45.146877,-17.114634,-150.05655
6340000000,-27.230858,-80.777611,-30.941801,-47.730225,-30.908539,-47.521297,-17.282932,-152.02058
6342500000,-27.343704,-77.983955,-30.701612,-51.818871,-30.657324,-51.057972,-17.404137,-152.09749
6345000000,-27.682531,-76.868774,-31.020243,-54.729557,-30.911976,-55.308064,-17.637878,-154.84793
6347500000,-28.366085,-75.879066,-31.666388,-55.565342,-31.461657,-57.080318,-17.613676,-155.75079
6350000000,-27.529009,-73.941109,-31.672169,-57.620644,-31.673481,-56.728832,-17.670033,-158.57555
6352500000,-27.79122,-74.955612,-31.807724,-59.441101,-31.802479,-58.039822,-17.856905,-159.59332
6355000000,-27.539717,-79.968735,-32.179951,-60.72646,-32.344589,-62.298382,-17.998289,-160.69456
6357500000,-28.400938,-73.434906,-32.690598,-60.50153,-32.790535,-60.307785,-18.225231,-163.46031
6360000000,-28.607121,-76.638535,-32.944664,-59.280094,-32.922268,-59.710571,-18.802349,-164.32724
6362500000,-27.804071,-81.096779,-32.945263,-55.67025,-33.050507,-54.423702,-18.29282,-165.54112
6365000000,-27.668573,-84.434227,-32.398556,-52.910149,-32.491512,-52.667885,-18.414022,-164.71156
6367500000,-28.632999,-90.444633,-31.770733,-53.376823,-31.793211,-52.583466,-18.589621,-164.894
6370000000,-29.620523,-88.64502,-31.260292,-55.952152,-31.440014,-56.418816,-18.436291,-166.96611
6372500000,-30.281116,-97.455338,-31.088274,-59.401276,-31.083073,-59.910786,-18.262646,-167.06877
6375000000,-29.860085,-98.584435,-31.033947,-62.824902,-31.188038,-63.325478,-18.325871,-168.61226
6377500000,-31.338512,-113.65726,-31.129814,-63.706379,-31.167841,-64.333015,-18.567432,-170.66039
6380000000,-32.608025,-110.63481,-30.928534,-64.279869,-30.887983,-64.200912,-18.196529,-171.91188
6382500000,-34.198872,-126.43481,-30.683796,-66.276833,-30.764576,-66.131241,-18.449726,-173.42264
6385000000,-35.165329,-110.95121,-30.668604,-68.965858,-30.780073,-69.595909,-18.136742,-174.97495
6387500000,-38.529175,-122.68497,-30.816168,-68.978004,-30.753456,-69.588135,-18.404476,-177.83833
6390000000,-37.250458,-122.8708,-30.196442,-69.799263,-30.195257,-68.746414,-18.644133,-179.50719
6392500000,-39.126682,-131.22984,-29.658485,-72.152824,-29.729206,-72.568237,-18.544687,177.54524
6395000000,-39.00079,-140.82814,-29.510841,-77.074944,-29.633045,-76.864449,-18.554434,179.98769
6397500000,-43.242409,-152.0731,-29.595585,-81.375992,-29.544632,-81.208191,-18.525484,178.30742
6400000000,-52.290707,-167.38593,-29.434862,-84.140007,-29.326529,-84.442322,-18.445633,177.53026
6402500000,-49.571289,-162.53133,-29.447964,-89.121773,-29.419744,-89.368973,-18.362207,175.22548
6405000000,-46.022682,174.08876,-29.963747,-92.855331,-29.774027,-91.748932,-18.040167,173.73482
6407500000,-46.056839,147.25507,-29.970415,-93.113197,-30.009718,-92.415565,-17.951883,171.64676
6410000000,-43.673897,108.72234,-29.62644,-94.266785,-29.657969,-95.197464,-18.234739,171.38068
6412500000,-42.330585,93.014107,-30.016487,-98.766907,-30.055075,-99.364487,-17.93454,168.70653
6415000000,-38.789989,83.345459,-30.129887,-101.38397,-30.161963,-101.25953,-18.081669,166.79404
6417500000,-39.591789,61.865326,-30.272226,-102.2505,-30.205303,-102.56886,-18.087074,164.75145
6420000000,-43.223557,87.088844,-30.201063,-103.04158,-30.223663,-104.04802,-17.716955,162.9958
6422500000,-38.096218,88.239876,-29.972353,-106.38749,-30.120502,-105.82278,-18.033689,162.02679
6425000000,-37.98148,94.415787,-29.898842,-109.2086,-29.89209,-109.6284,-17.792685,159.842
6427500000,-35.17812,90.81118,-30.235846,-114.71963,-30.160322,-114.74247,-17.703987,157.52495
6430000000,-34.730915,93.870605,-30.437662,-118.20702,-30.411346,-117.59261,-17.539701,156.52344
6432500000,-33.397957,94.194832,-30.758751,-120.52775,-30.660069,-120.51902,-17.512705,152.89014
6435000000,-33.101246,89.133377,-31.333391,-121.88763,-31.303997,-121.94448,-17.622492,151.31557
6437500000,-32.95055,91.279228,-31.53392,-121.5354,-31.557453,-121.6339,-17.907484,149.80779
6440000000,-31.877743,94.610527,-31.472626,-122.84209,-31.390305,-122.65566,-17.959742,146.40283
6442500000,-30.290129,94.620575,-31.514908,-124.5232,-31.639244,-123.73853,-18.298443,144.11819
6445000000,-30.37491,96.419815,-31.980898,-126.16856,-31.944103,-125.60911,-18.410686,144.6506
6447500000,-29.198736,89.982826,-31.990559,-126.24772,-32.0606,-126.80928,-18.403547,143.87648
6450000000,-28.315159,90.177307,-32.168797,-125.40713,-32.197224,-126.12403,-18.362844,144.10861
6452500000,-27.247089,89.71402,-32.154152,-127.44016,-32.081203,-126.87218,-18.550282,143.15509
6455000000,-27.249624,86.26754,-32.055973,-127.4762,-32.028328,-127.09239,-18.802416,142.72055
6457500000,-26.859116,87.037949,-31.992008,-130.20039,-32.073452,-129.8616,-18.683815,141.06863
6460000000,-26.356045,84.266182,-32.503773,-130.64977,-32.320564,-131.16733,-18.637112,141.78143
6462500000,-26.531384,86.578506,-32.320351,-129.30864,-32.413219,-129.41084,-18.76646,141.44333
6465000000,-26.201998,83.803619,-32.027203,-130.68811,-32.047806,-130.39587,-18.704708,141.8972
6467500000,-26.191257,80.868019,-31.920052,-132.90936,-31.953949,-133.0233,-18.351181,139.99902
6470000000,-25.184713,78.11599,-31.793966,-135.19917,-31.88624,-135.39668,-18.275661,139.64429
6472500000,-25.461288,76.414726,-32.101353,-139.21568,-32.188881,-138.42047,-18.207865,138.11096
6475000000,-24.717884,81.352959,-32.685833,-138.51753,-32.658443,-138.39035,-18.299753,138.60985
6477500000,-25.154951,76.964821,-32.546501,-135.21819,-32.435963,-134.82813,-18.041723,138.77377
6480000000,-24.57655,75.339798,-32.086414,-135.97513,-32.021095,-135.88019,-17.919071,135.89877
6482500000,-24.848831,73.749382,-31.835564,-137.88831,-31.784279,-138.54214,-17.631599,135.7668
6485000000,-24.516943,71.928864,-31.60017,-138.97224,-31.60998,-137.72096,-17.533966,134
6487500000,-24.544674,77.123566,-31.29595,-141.03525,-31.361927,-139.82922,-17.146719,132.31015
6490000000,-24.590534,75.642754,-31.380537,-142.55226,-31.31072,-142.46159,-17.132559,130.82869
6492500000,-24.140551,72.181046,-31.008146,-143.61975,-30.966311,-142.9749,-16.932022,128.37347
6495000000,-24.020315,72.900604,-30.717373,-146.91179,-30.756067,-147.2296,-16.927174,126.8885
6497500000,-23.563246,70.309212,-30.461174,-150.4433,-30.588551,-150.56296,-16.949856,124.88643
6500000000,-23.841625,67.809746,-30.382746,-154.77145,-30.427094,-155.15358,-16.835398,123.6872
END,,,,,,,,